<Qucs Dataset 1.0.0>
<indep frequency 200>
  +2.00000000000000000000e+09
  +2.00502512562814068794e+09
  +2.01005025125628137589e+09
  +2.01507537688442206383e+09
  +2.02010050251256275177e+09
  +2.02512562814070343971e+09
  +2.03015075376884412766e+09
  +2.03517587939698481560e+09
  +2.04020100502512574196e+09
  +2.04522613065326642990e+09
  +2.05025125628140711784e+09
  +2.05527638190954780579e+09
  +2.06030150753768849373e+09
  +2.06532663316582918167e+09
  +2.07035175879396986961e+09
  +2.07537688442211055756e+09
  +2.08040201005025124550e+09
  +2.08542713567839193344e+09
  +2.09045226130653262138e+09
  +2.09547738693467330933e+09
  +2.10050251256281399727e+09
  +2.10552763819095468521e+09
  +2.11055276381909537315e+09
  +2.11557788944723606110e+09
  +2.12060301507537698746e+09
  +2.12562814070351767540e+09
  +2.13065326633165836334e+09
  +2.13567839195979905128e+09
  +2.14070351758793973923e+09
  +2.14572864321608042717e+09
  +2.15075376884422111511e+09
  +2.15577889447236156464e+09
  +2.16080402010050249100e+09
  +2.16582914572864341736e+09
  +2.17085427135678386688e+09
  +2.17587939698492479324e+09
  +2.18090452261306524277e+09
  +2.18592964824120616913e+09
  +2.19095477386934661865e+09
  +2.19597989949748754501e+09
  +2.20100502512562799454e+09
  +2.20603015075376892090e+09
  +2.21105527638190937042e+09
  +2.21608040201005029678e+09
  +2.22110552763819074631e+09
  +2.22613065326633167267e+09
  +2.23115577889447212219e+09
  +2.23618090452261304855e+09
  +2.24120603015075397491e+09
  +2.24623115577889442444e+09
  +2.25125628140703535080e+09
  +2.25628140703517580032e+09
  +2.26130653266331672668e+09
  +2.26633165829145717621e+09
  +2.27135678391959810257e+09
  +2.27638190954773855209e+09
  +2.28140703517587947845e+09
  +2.28643216080401992798e+09
  +2.29145728643216085434e+09
  +2.29648241206030178070e+09
  +2.30150753768844223022e+09
  +2.30653266331658267975e+09
  +2.31155778894472360611e+09
  +2.31658291457286453247e+09
  +2.32160804020100498199e+09
  +2.32663316582914590836e+09
  +2.33165829145728635788e+09
  +2.33668341708542728424e+09
  +2.34170854271356773376e+09
  +2.34673366834170866013e+09
  +2.35175879396984910965e+09
  +2.35678391959799003601e+09
  +2.36180904522613048553e+09
  +2.36683417085427141190e+09
  +2.37185929648241233826e+09
  +2.37688442211055278778e+09
  +2.38190954773869323730e+09
  +2.38693467336683416367e+09
  +2.39195979899497509003e+09
  +2.39698492462311553955e+09
  +2.40201005025125646591e+09
  +2.40703517587939691544e+09
  +2.41206030150753784180e+09
  +2.41708542713567829132e+09
  +2.42211055276381921768e+09
  +2.42713567839195966721e+09
  +2.43216080402010059357e+09
  +2.43718592964824104309e+09
  +2.44221105527638196945e+09
  +2.44723618090452289581e+09
  +2.45226130653266334534e+09
  +2.45728643216080379486e+09
  +2.46231155778894472122e+09
  +2.46733668341708564758e+09
  +2.47236180904522609711e+09
  +2.47738693467336702347e+09
  +2.48241206030150747299e+09
  +2.48743718592964839935e+09
  +2.49246231155778884888e+09
  +2.49748743718592977524e+09
  +2.50251256281407022476e+09
  +2.50753768844221115112e+09
  +2.51256281407035160065e+09
  +2.51758793969849252701e+09
  +2.52261306532663345337e+09
  +2.52763819095477390289e+09
  +2.53266331658291435242e+09
  +2.53768844221105527878e+09
  +2.54271356783919620514e+09
  +2.54773869346733665466e+09
  +2.55276381909547758102e+09
  +2.55778894472361803055e+09
  +2.56281407035175895691e+09
  +2.56783919597989940643e+09
  +2.57286432160804033279e+09
  +2.57788944723618078232e+09
  +2.58291457286432170868e+09
  +2.58793969849246215820e+09
  +2.59296482412060308456e+09
  +2.59798994974874401093e+09
  +2.60301507537688446045e+09
  +2.60804020100502490997e+09
  +2.61306532663316583633e+09
  +2.61809045226130676270e+09
  +2.62311557788944721222e+09
  +2.62814070351758813858e+09
  +2.63316582914572858810e+09
  +2.63819095477386951447e+09
  +2.64321608040200996399e+09
  +2.64824120603015089035e+09
  +2.65326633165829133987e+09
  +2.65829145728643226624e+09
  +2.66331658291457271576e+09
  +2.66834170854271364212e+09
  +2.67336683417085456848e+09
  +2.67839195979899501801e+09
  +2.68341708542713546753e+09
  +2.68844221105527639389e+09
  +2.69346733668341732025e+09
  +2.69849246231155776978e+09
  +2.70351758793969869614e+09
  +2.70854271356783914566e+09
  +2.71356783919598007202e+09
  +2.71859296482412052155e+09
  +2.72361809045226144791e+09
  +2.72864321608040189743e+09
  +2.73366834170854282379e+09
  +2.73869346733668327332e+09
  +2.74371859296482419968e+09
  +2.74874371859296512604e+09
  +2.75376884422110557556e+09
  +2.75879396984924602509e+09
  +2.76381909547738695145e+09
  +2.76884422110552787781e+09
  +2.77386934673366832733e+09
  +2.77889447236180925369e+09
  +2.78391959798994970322e+09
  +2.78894472361809062958e+09
  +2.79396984924623107910e+09
  +2.79899497487437200546e+09
  +2.80402010050251245499e+09
  +2.80904522613065338135e+09
  +2.81407035175879383087e+09
  +2.81909547738693475723e+09
  +2.82412060301507568359e+09
  +2.82914572864321613312e+09
  +2.83417085427135658264e+09
  +2.83919597989949750900e+09
  +2.84422110552763843536e+09
  +2.84924623115577888489e+09
  +2.85427135678391981125e+09
  +2.85929648241206026077e+09
  +2.86432160804020118713e+09
  +2.86934673366834163666e+09
  +2.87437185929648256302e+09
  +2.87939698492462301254e+09
  +2.88442211055276393890e+09
  +2.88944723618090438843e+09
  +2.89447236180904531479e+09
  +2.89949748743718624115e+09
  +2.90452261306532669067e+09
  +2.90954773869346714020e+09
  +2.91457286432160806656e+09
  +2.91959798994974899292e+09
  +2.92462311557788944244e+09
  +2.92964824120603036880e+09
  +2.93467336683417081833e+09
  +2.93969849246231174469e+09
  +2.94472361809045219421e+09
  +2.94974874371859312057e+09
  +2.95477386934673357010e+09
  +2.95979899497487449646e+09
  +2.96482412060301494598e+09
  +2.96984924623115587234e+09
  +2.97487437185929679871e+09
  +2.97989949748743724823e+09
  +2.98492462311557769775e+09
  +2.98994974874371862411e+09
  +2.99497487437185955048e+09
  +3.00000000000000000000e+09
</indep>
<dep db_S11 frequency>
  -5.53988676991111077541e+01+j1.54154596995992925201e+01
  -5.58301272831120485307e+01+j1.53736248285866388130e+01
  -5.62844125697718737911e+01+j1.53343119300085906076e+01
  -5.67642514309586374566e+01+j1.52979534425124956698e+01
  -5.72726139032943777352e+01+j1.52650865055366491418e+01
  -5.78130212052375824783e+01+j1.52363866343250080604e+01
  -5.83896903713561954419e+01+j1.52127152599276946887e+01
  -5.90077293484869258577e+01+j1.51951882695547784152e+01
  -5.96734050936393742859e+01+j1.51852772008356868838e+01
  -6.03945197812966796391e+01+j1.51849627462960015123e+01
  -6.11809513850160229254e+01+j1.51969749653939061318e+01
  -6.20454517349261891468e+01+j1.52251830033339974335e+01
  -6.30048617212558355050e+01+j1.52752547683004991086e+01
  -6.40820285846840249633e+01+j1.53558314309919179408e+01
  -6.53089561161019673818e+01+j1.54807503422750247779e+01
  -6.67322198073728003465e+01+j1.56735814471730385833e+01
  -6.84227132305364165177e+01+j1.59778050069222192775e+01
  -7.04936962298090605827e+01+j1.64825939089586412933e+01
  -7.31313218219001157649e+01+j1.73991121241522357366e+01
  -7.65921409729679822931e+01+j1.93285967950817010319e+01
  -8.03912478805436592211e+01+j2.40658059763101341844e+01
  -7.98730918748137384000e+01-j2.29915628782937488950e+01
  -7.59525253212861457541e+01-j1.89078396273155071583e+01
  -7.26412761120095069600e+01-j1.72245497827770357446e+01
  -7.01138856135181356422e+01-j1.64014401473465696313e+01
  -6.81157328448698251577e+01-j1.59396547102816512620e+01
  -6.64751894913695480227e+01-j1.56583541024241092998e+01
  -6.50877993790419253628e+01-j1.54790815395448895231e+01
  -6.38876665747597485279e+01-j1.53628143846347438028e+01
  -6.28311567000864528154e+01-j1.52880840071427837046e+01
  -6.18880820863872571636e+01-j1.52421431210682847279e+01
  -6.10367685102995878310e+01-j1.52169599643682946777e+01
  -6.02611630330666656619e+01-j1.52072283281660425303e+01
  -5.95490612443828482014e+01-j1.52093044866428996897e+01
  -5.88909766364092348567e+01-j1.52206046814961215574e+01
  -5.82793940420697111904e+01-j1.52392464756469063758e+01
  -5.77082615315937061951e+01-j1.52638262758740275160e+01
  -5.71726353366041522008e+01-j1.52932763800449045277e+01
  -5.66684258846086024164e+01-j1.53267702900123268250e+01
  -5.61922123879598558460e+01-j1.53636583114621849688e+01
  -5.57411049928808353116e+01-j1.54034227214203500722e+01
  -5.53126406067150711010e+01-j1.54456459073870782106e+01
  -5.49047030159851630060e+01-j1.54899873043507447790e+01
  -5.45154608173504158231e+01-j1.55361664221489057525e+01
  -5.41433186086670232839e+01-j1.55839501671728637433e+01
  -5.37868781866966827465e+01-j1.56331432428598731121e+01
  -5.34449073909868914711e+01-j1.56835807911377820290e+01
  -5.31163148573777377237e+01-j1.57351226876716872027e+01
  -5.28001293872204868762e+01-j1.57876490731480458862e+01
  -5.24954829567936513968e+01-j1.58410568191830485318e+01
  -5.22015966234349448882e+01-j1.58952567085792502155e+01
  -5.19177687560114549115e+01-j1.59501711670303603086e+01
  -5.16433651449436936787e+01-j1.60057324244735745822e+01
  -5.13778106431199788062e+01-j1.60618810140830383659e+01
  -5.11205820621566147111e+01-j1.61185645387398714945e+01
  -5.08712021045842348599e+01-j1.61757366509919258135e+01
  -5.06292341559700460607e+01-j1.62333562046173973670e+01
  -5.03942777948891063033e+01-j1.62913865450390424883e+01
  -5.01659649052813847447e+01-j1.63497949127893704713e+01
  -4.99439562968223214057e+01-j1.64085519395621801664e+01
  -4.97279387557297454237e+01-j1.64676312205123451804e+01
  -4.95176224619024907270e+01-j1.65270089496784606808e+01
  -4.93127387191415067491e+01-j1.65866636079230254097e+01
  -4.91130379540205481703e+01-j1.66465756947727214765e+01
  -4.89182879461546491484e+01-j1.67067274971201662481e+01
  -4.87282722585001835114e+01-j1.67671028890092799202e+01
  -4.85427888411690560133e+01-j1.68276871577381186285e+01
  -4.83616487862531414521e+01-j1.68884668523308931753e+01
  -4.81846752144805208218e+01-j1.69494296510927071608e+01
  -4.80117022773125441404e+01-j1.70105642455018042369e+01
  -4.78425742604144232928e+01-j1.70718602381354997988e+01
  -4.76771447763943356790e+01-j1.71333080526904737440e+01
  -4.75152760363576192049e+01-j1.71948988544580707583e+01
  -4.73568381912223088648e+01-j1.72566244798644490288e+01
  -4.72017087349328789969e+01-j1.73184773738927368925e+01
  -4.70497719627262185327e+01-j1.73804505343774557957e+01
  -4.69009184784635948517e+01-j1.74425374623066105073e+01
  -4.67550447457987559119e+01-j1.75047321173890253476e+01
  -4.66120526785798432456e+01-j1.75670288782474131040e+01
  -4.64718492664476272580e+01-j1.76294225066850707151e+01
  -4.63343462320567169854e+01-j1.76919081155480348855e+01
  -4.61994597167765732593e+01-j1.77544811397674280329e+01
  -4.60671099920739948175e+01-j1.78171373102211987316e+01
  -4.59372211941046373340e+01-j1.78798726300997721239e+01
  -4.58097210793083959857e+01-j1.79426833535004419673e+01
  -4.56845407990465020021e+01-j1.80055659660089553142e+01
  -4.55616146915276232221e+01-j1.80685171670564059809e+01
  -4.54408800894568472017e+01-j1.81315338538649797329e+01
  -4.53222771420038057499e+01-j1.81946131068179823842e+01
  -4.52057486498285854282e+01-j1.82577521761089442975e+01
  -4.50912399120355971149e+01-j1.83209484695412356814e+01
  -4.49786985840347242060e+01-j1.83841995413640937329e+01
  -4.48680745453886942187e+01-j1.84475030820438519186e+01
  -4.47593197768218971078e+01-j1.85108569088801431235e+01
  -4.46523882456334320068e+01-j1.85742589573867782349e+01
  -4.45472357988390683659e+01-j1.86377072733656667936e+01
  -4.44438200634233382402e+01-j1.87012000056094294109e+01
  -4.43421003531444029022e+01-j1.87647353991754464175e+01
  -4.42420375813774597873e+01-j1.88283117891796969445e+01
  -4.41435941795389084064e+01-j1.88919275950641782913e+01
  -4.40467340206650987966e+01-j1.89555813152962393531e+01
  -4.39514223477603422907e+01-j1.90192715224623114523e+01
  -4.38576257065632120202e+01-j1.90829968587222111864e+01
  -4.37653118824064648607e+01-j1.91467560315935472204e+01
  -4.36744498408781254284e+01-j1.92105478100384239326e+01
  -4.35850096720093489466e+01-j1.92743710208276368689e+01
  -4.34969625377438688929e+01-j1.93382245451594734220e+01
  -4.34102806224590693773e+01-j1.94021073155127581344e+01
  -4.33249370863292355693e+01-j1.94660183127151427129e+01
  -4.32409060213359737190e+01-j1.95299565632099501045e+01
  -4.31581624097512062121e+01-j1.95939211365058412184e+01
  -4.30766820849250962056e+01-j1.96579111427952248903e+01
  -4.29964416942278759848e+01-j1.97219257307286071068e+01
  -4.29174186640075205901e+01-j1.97859640853329352694e+01
  -4.28395911664299759991e+01-j1.98500254260633539616e+01
  -4.27629380880866989401e+01-j1.99141090049783215932e+01
  -4.26874390002520698317e+01-j1.99782141050291564000e+01
  -4.26130741306947982139e+01-j2.00423400384557197640e+01
  -4.25398243369409385650e+01-j2.01064861452805878628e+01
  -4.24676710809051201068e+01-j2.01706517918946701684e+01
  -4.23965964048035459655e+01-j2.02348363697280149154e+01
  -4.23265829082733873179e+01-j2.02990392939996624477e+01
  -4.22576137266282003679e+01-j2.03632600025412955347e+01
  -4.21896725101815377457e+01-j2.04274979546894073223e+01
  -4.21227434045756865544e+01-j2.04917526302416348472e+01
  -4.20568110320602883689e+01-j2.05560235284728101135e+01
  -4.19918604736651985831e+01-j2.06203101672066821948e+01
  -4.19278772522160352310e+01-j2.06846120819398784363e+01
  -4.18648473161482925775e+01-j2.07489288250144845449e+01
  -4.18027570240726333850e+01-j2.08132599648362912603e+01
  -4.17415931300528200154e+01-j2.08776050851355634563e+01
  -4.16813427695550160479e+01-j2.09419637842679584594e+01
  -4.16219934460348000016e+01-j2.10063356745527087810e+01
  -4.15635330181264208704e+01-j2.10707203816460477697e+01
  -4.15059496874014115519e+01-j2.11351175439474836537e+01
  -4.14492319866708669451e+01-j2.11995268120371171960e+01
  -4.13933687687972593494e+01-j2.12639478481419601508e+01
  -4.13383491959940911897e+01-j2.13283803256295421136e+01
  -4.12841627295876065773e+01-j2.13928239285271928338e+01
  -4.12307991202153090171e+01-j2.14572783510655966666e+01
  -4.11782483984415534906e+01-j2.15217432972449564943e+01
  -4.11265008657687687332e+01-j2.15862184804226266976e+01
  -4.10755470860232918540e+01-j2.16507036229209859357e+01
  -4.10253778771010075843e+01-j2.17151984556542352323e+01
  -4.09759843030519732565e+01-j2.17797027177731763459e+01
  -4.09273576664886817866e+01-j2.18442161563270254021e+01
  -4.08794895013044481402e+01-j2.19087385259410751814e+01
  -4.08323715656841130794e+01-j2.19732695885094884147e+01
  -4.07859958353961218336e+01-j2.20378091129024014094e+01
  -4.07403544973513120908e+01-j2.21023568746864924606e+01
  -4.06954399434171705252e+01-j2.21669126558582938458e+01
  -4.06512447644743133424e+01-j2.22314762445895652831e+01
  -4.06077617447062451106e+01-j2.22960474349841284436e+01
  -4.05649838561116098390e+01-j2.23606260268453596041e+01
  -4.05229042532258745268e+01-j2.24252118254542196496e+01
  -4.04815162680482742985e+01-j2.24898046413566667923e+01
  -4.04408134051619256866e+01-j2.25544042901604058216e+01
  -4.04007893370377431097e+01-j2.26190105923404729538e+01
  -4.03614378995179947651e+01-j2.26836233730528213925e+01
  -4.03227530874681079354e+01-j2.27482424619560354984e+01
  -4.02847290505915367476e+01-j2.28128676930402960465e+01
  -4.02473600894002530026e+01-j2.28774989044635219670e+01
  -4.02106406513358649590e+01-j2.29421359383941592114e+01
  -4.01745653270312530481e+01-j2.30067786408604781911e+01
  -4.01391288467123814598e+01-j2.30714268616057438521e+01
  -4.01043260767295421942e+01-j2.31360804539493614129e+01
  -4.00701520162169799733e+01-j2.32007392746533014360e+01
  -4.00366017938722436043e+01-j2.32654031837939676564e+01
  -4.00036706648536011244e+01-j2.33300720446387828133e+01
  -3.99713540077879585510e+01-j2.33947457235276630172e+01
  -3.99396473218882945844e+01-j2.34594240897589756401e+01
  -3.99085462241732571442e+01-j2.35241070154796858560e+01
  -3.98780464467869393275e+01-j2.35887943755796349876e+01
  -3.98481438344143086283e+01-j2.36534860475897410481e+01
  -3.98188343417897954168e+01-j2.37181819115837626555e+01
  -3.97901140312932071197e+01-j2.37828818500837648742e+01
  -3.97619790706328899432e+01-j2.38475857479687824991e+01
  -3.97344257306104822192e+01-j2.39122934923867376256e+01
  -3.97074503829650211628e+01-j2.39770049726695120285e+01
  -3.96810494982948469556e+01-j2.40417200802506698665e+01
  -3.96552196440531830035e+01-j2.41064387085862072979e+01
  -3.96299574826141025596e+01-j2.41711607530778422870e+01
  -3.96052597694090806613e+01-j2.42358861109987735460e+01
  -3.95811233511294489062e+01-j2.43006146814219370356e+01
  -3.95575451639935806725e+01-j2.43653463651504189613e+01
  -3.95345222320761351398e+01-j2.44300810646502384316e+01
  -3.95120516656972000646e+01-j2.44948186839850094998e+01
  -3.94901306598714825213e+01-j2.45595591287527454938e+01
  -3.94687564928118490570e+01-j2.46243023060244325961e+01
  -3.94479265244889489850e+01-j2.46890481242845396537e+01
  -3.94276381952431336231e+01-j2.47537964933730592065e+01
  -3.94078890244483019956e+01-j2.48185473244293888229e+01
  -3.93886766092255200533e+01-j2.48833005298375766756e+01
  -3.93699986232045091583e+01-j2.49480560231732475529e+01
  -3.93518528153328190911e+01-j2.50128137191517367910e+01
  -3.93342370087297226178e+01-j2.50775735335777127943e+01
  -3.93171490995863663898e+01-j2.51423353832960287946e+01
  -3.93005870561061172452e+01-j2.52070991861438109538e+01
  -3.92845489174892250617e+01-j2.52718648609036122821e+01
  -3.92690327929580504929e+01-j2.53366323272577531611e+01
</dep>
<dep S[1,1] frequency>
  -3.44045486077318766159e-04+j1.66325471136654127156e-03
  -3.19753896011884465762e-04+j1.58424816371363066589e-03
  -2.96651979020361134757e-04+j1.50487717026802619164e-03
  -2.74745146318116164903e-04+j1.42515966441083760663e-03
  -2.54038538874818353112e-04+j1.34511366022114142380e-03
  -2.34537026206417211676e-04+j1.26475724840214719287e-03
  -2.16245205228523900125e-04+j1.18410859218895771552e-03
  -1.99167399171536169773e-04+j1.10318592323913294666e-03
  -1.83307656557738987832e-04+j1.02200753750688200922e-03
  -1.68669750240662272896e-04+j9.40591791101974138319e-04
  -1.55257176506884989270e-04+j8.58957096134073394555e-04
  -1.43073154240558087251e-04+j7.77121916543754387256e-04
  -1.32120624150774198125e-04+j6.95104763920692753434e-04
  -1.22402248062081182379e-04+j6.12924193310598257149e-04
  -1.13920408268201655893e-04+j5.30598799011206120543e-04
  -1.06677206949193278127e-04+j4.48147210358677339833e-04
  -1.00674465652188132908e-04+j3.65588087505324408136e-04
  -9.59137248358141061930e-05+j2.82940117189468712082e-04
  -9.23962434784383396984e-05+j2.00222008498562403745e-04
  -9.01229987503463441474e-05+j1.17452488626351117963e-04
  -8.90946857499046938585e-05+j3.46502986252994308897e-05
  -8.93117173038253858502e-05-j4.81658108450194681724e-05
  -9.07742238315765596944e-05-j1.30977083772425604387e-04
  -9.34820532739686889476e-05-j2.13764763048678274300e-04
  -9.74347710859644640510e-05-j2.96510094726861979982e-04
  -1.02631660293723642402e-04-j3.79194332279016437393e-04
  -1.09071721615880019569e-04-j4.61798740852755254527e-04
  -1.16753673649039679621e-04-j5.44304601525911449685e-04
  -1.25675953117466439974e-04-j6.26693215558394049400e-04
  -1.35836715186926274392e-04-j7.08945908640217967688e-04
  -1.47233833842598191028e-04-j7.91044035134573822986e-04
  -1.59864902331034231843e-04-j8.72968982315338454248e-04
  -1.73727233666028162097e-04-j9.54702174597692730142e-04
  -1.88817861198296816716e-04-j1.03622507776094286043e-03
  -2.05133539248912290459e-04-j1.11751920316290965021e-03
  -2.22670743806284638418e-04-j1.19856611194449477406e-03
  -2.41425673286561350527e-04-j1.27934741922358001867e-03
  -2.61394249357355806795e-04-j1.35984479827764279981e-03
  -2.82572117824501597462e-04-j1.44003998471351184890e-03
