! 1/1/2000 12:26:11 AM
! C:\DOCUMENTS AND SETTINGS\VECTORSTARUSER\DESKTOP\231101\ANT_2_32_INFR.S2P
! CHANNEL.1
! TR.MEASUREMENT
! CORRECTED.DATA
# HZ S DB R 50.0
! FREQ.HZ         S11DB        S11A          S21DB        S21A          S12DB        S12A          S22DB        S22A
    1500000000    -0.6017070  -93.9829600   -83.5619500 -134.3388000   -85.2828400  -58.3057900   -12.9693800   -6.9867940
    1503000000    -0.6231030  -95.8136800   -85.6601300  102.6718000   -88.2355300  100.9475000   -12.9857100   -6.9051210
    1506000000    -0.6186016  -97.7826600  -104.2173000 -145.6000000   -88.0614600 -143.5206000   -13.0356700   -6.7826850
    1509000000    -0.6311035  -99.5723800   -93.5593600   80.8626600   -95.3053900  133.3214000   -13.0510100   -6.6287890
    1512000000    -0.6365789 -101.4610000   -89.8729700 -129.6666000   -81.6884300  -42.9713200   -13.0660800   -6.5853220
    1515000000    -0.6320662 -103.4034000   -90.7895100   21.3862900   -98.5568800  156.5485000   -13.0759800   -6.5213190
    1518000000    -0.6333835 -105.3764000   -92.1567500  -36.7137100   -83.2814900 -144.2416000   -13.0853200   -6.4466210
    1521000000    -0.6350737 -107.3624000   -87.6354500   20.1228800   -86.1421100 -137.5338000   -13.0813400   -6.4517350
    1524000000    -0.6111178 -109.2362000   -88.9792700  -59.6153100   -84.5853000  147.2569000   -13.0897500   -6.3625000
    1527000000    -0.6248115 -111.1629000   -94.0458400  -36.9648800   -84.1218300  120.9511000   -13.0919700   -6.3381120
    1530000000    -0.6232811 -113.1409000   -96.3052700 -169.9833000   -86.0478900   -1.8212050   -13.0915900   -6.3363200
    1533000000    -0.6178372 -115.1013000   -90.9949300 -149.4870000   -86.8005000  -58.4544400   -13.0871500   -6.2798990
    1536000000    -0.6315905 -117.0116000   -94.3466900   29.7982200   -88.6756500  -57.6608000   -13.0862600   -6.3367400
    1539000000    -0.6341435 -119.0521000   -91.6035800  -98.9766600   -94.4153100  160.3179000   -13.0857100   -6.3099500
    1542000000    -0.6466454 -121.0647000   -89.0322700 -144.1773000   -83.2724100  166.4602000   -13.0854800   -6.3385320
    1545000000    -0.6542143 -123.1057000   -84.9193700  156.2336000   -93.8407700 -110.5282000   -13.0651500   -6.3034920
    1548000000    -0.6566378 -125.0604000   -92.1921100 -107.6341000   -97.6816900 -110.4536000   -13.0563400   -6.2801040
    1551000000    -0.6601626 -127.0713000   -98.2136800   52.3241400   -90.1670500  140.3112000   -13.0502900   -6.4096870
    1554000000    -0.6586388 -129.1454000   -98.6603500    5.6188690   -88.9641600  -40.2769100   -13.0372800   -6.3818220
    1557000000    -0.6705676 -131.1379000  -106.6074000  102.7964000   -79.9622800  101.9996000   -13.0149800   -6.4925940
    1560000000    -0.6820688 -133.1864000   -84.7563200 -103.1704000   -85.1781200 -135.7067000   -12.9960600   -6.5589690
    1563000000    -0.6737869 -135.2511000   -96.8717300  -56.8086100   -88.6048100   -2.2708180   -12.9836500   -6.5772190
    1566000000    -0.6801853 -137.2668000   -86.0582700   11.4532100   -88.1396600   25.4426300   -12.9738200   -6.5746640
    1569000000    -0.6895670 -139.3442000   -85.9139400   27.7199600  -102.6977000 -164.0660000   -12.9541300   -6.6797820
    1572000000    -0.6921777 -141.3517000   -84.8483200  137.5866000   -88.0763500  156.3769000   -12.9518600   -6.6556390
    1575000000    -0.7021090 -143.4707000   -88.9239800 -145.3311000   -82.7654100  177.2433000   -12.9241400   -6.7726470
    1578000000    -0.7121500 -145.5846000   -89.6499500   68.4043300   -86.1349300   40.1034500   -12.9063200   -6.7275820
    1581000000    -0.7232290 -147.6734000   -89.3038300 -128.5793000   -85.8202200  135.5005000   -12.8911200   -6.9794150
    1584000000    -0.7310275 -149.7646000   -95.0260900   89.4224400   -83.1013300   87.6543500   -12.8671200   -6.8603760
    1587000000    -0.7387050 -151.8813000  -100.3680000   42.3040400   -83.3927500   -0.4742710   -12.8464200   -6.9407400
    1590000000    -0.7441622 -154.0090000   -87.1226900  -54.5031900   -98.5588200    9.3204880   -12.8371300   -7.0617760
    1593000000    -0.7465289 -156.1099000   -94.8537900 -140.2182000   -89.8602300  -92.1008700   -12.8288100   -7.1833380
    1596000000    -0.7609627 -158.2475000   -96.2282600   83.3631900   -86.3785900   29.8552200   -12.8123200   -7.2681040
    1599000000    -0.7652326 -160.4197000   -87.0531500   24.4801500   -88.6284600   39.4368700   -12.8052900   -7.4092130
    1602000000    -0.7697786 -162.5337000   -89.4879000  -92.5205700   -97.0990100   67.0815300   -12.7880900   -7.4995410
    1605000000    -0.7779830 -164.7105000   -90.6156900   18.7321100   -86.3423300   80.7354700   -12.7823300   -7.6258110
    1608000000    -0.7745228 -166.9391000  -108.0981000   33.0089100   -85.1699000  168.0916000   -12.7685300   -7.8087400
    1611000000    -0.7871941 -169.0908000   -84.1239500 -141.8925000   -86.0640300  106.1448000   -12.7710500   -7.9549710
    1614000000    -0.7940407 -171.1843000   -82.4109000  -36.5208700   -85.6477300  156.7163000   -12.7711500   -8.0983500
    1617000000    -0.8036863 -173.3059000   -89.9838700   13.5834400   -93.5347300 -154.5713000   -12.7604100   -8.2785220
    1620000000    -0.8028048 -175.5041000   -89.6733500  -91.9504500   -81.0871000   40.8168800   -12.7550300   -8.3992750
    1623000000    -0.8172404 -177.7499000   -86.0544500  -78.9720000   -86.6262200  -82.8706400   -12.7611400   -8.6067740
    1626000000    -0.8196128 -179.9446000   -88.3814500  109.9870000   -89.5792700  -49.2501100   -12.7579500   -8.7568480
    1629000000    -0.8151936  177.9072000   -85.7466000  138.3615000   -94.4530900 -102.5096000   -12.7572500   -8.9345360
    1632000000    -0.8370746  175.7317000   -97.4567600   50.5473400   -87.6015900 -129.0757000   -12.7605400   -9.1079910
    1635000000    -0.8386729  173.5472000   -84.6014100 -137.7611000   -86.8685300    2.1618160   -12.7580500   -9.2824860
    1638000000    -0.8532021  171.4050000   -88.2832800   -3.7737520   -92.1926700   35.7633100   -12.7835400   -9.3916870
    1641000000    -0.8607681  169.1640000   -93.0107400  -79.9594300   -85.8441900 -120.8111000   -12.7977300   -9.5476310
    1644000000    -0.8799974  166.9474000   -91.0947800 -171.6308000   -86.7600900 -113.6468000   -12.7864200   -9.7946880
    1647000000    -0.8776909  164.7387000   -99.4950100  121.8900000   -88.4554700   48.0584900   -12.7822000   -9.9746980
    1650000000    -0.8844879  162.4912000   -85.1747100  -19.8105500   -91.7282900  -24.8453500   -12.7851600  -10.1860800
    1653000000    -0.8959936  160.2404000   -89.0251800 -176.6335000   -86.1602600   50.2138700   -12.7925900  -10.2808400
    1656000000    -0.9070110  158.0047000   -96.1259500  -60.8514700   -83.7683300  -61.8814100   -12.8003700  -10.4929500
    1659000000    -0.9147973  155.8077000   -91.7322100  -20.7425100   -99.7860600    4.4252150   -12.7967000  -10.6889000
    1662000000    -0.9312276  153.5770000   -83.0551500  -98.4436600   -88.8192100 -111.1827000   -12.7911700  -10.7276700
    1665000000    -0.9411589  151.3645000   -87.8767100  -83.1915000  -100.9330000 -164.7478000   -12.7858600  -10.8718700
    1668000000    -0.9474442  149.1875000  -103.2961000  107.9088000   -88.2863300  -44.0397300   -12.7807900  -11.1322200
    1671000000    -0.9678173  146.9494000   -80.3217700 -137.5883000   -89.5247200  131.4375000   -12.7859300  -11.2524700
    1674000000    -0.9744955  144.6971000   -81.1165300  -61.6380800   -95.3047600  165.8923000   -12.7877200  -11.3879500
    1677000000    -0.9893476  142.3985000   -84.0547900  -21.6567600   -85.2273900   41.5861700   -12.7834400  -11.5736800
    1680000000    -0.9933262  140.1334000   -89.6803300  -88.5977600   -91.9821200   17.4302900   -12.7890800  -11.6423300
    1683000000    -1.0094480  137.7759000   -81.5590200   -6.3984640   -98.0248100   79.6490300   -12.7812000  -11.7576200
    1686000000    -1.0249070  135.6063000   -91.7407800   -8.2404590   -92.1464700  -50.5310400   -12.7747700  -11.9828300
    1689000000    -1.0363970  133.2397000   -91.5628000   80.1185200   -91.3723300  -13.3502800   -12.7751300  -12.0024000
    1692000000    -1.0522310  130.9799000   -84.0146300  163.6393000   -99.5780100  157.1742000   -12.7750100  -12.1327000
    1695000000    -1.0703160  128.7154000   -90.4465600  111.9462000   -85.5140300  -57.7999500   -12.7709800  -12.1864700
    1698000000    -1.0746560  126.3929000   -89.1385200  -17.4739000   -91.4595800  -94.9856900   -12.7660600  -12.2329500
    1701000000    -1.0944380  124.1079000   -88.9558700 -121.9960000   -88.1127500  150.4873000   -12.7596500  -12.3664100
    1704000000    -1.1063470  121.8167000   -93.1602400  126.9934000   -92.9346600 -134.3836000   -12.7551000  -12.3984900
    1707000000    -1.1157930  119.5155000   -87.8542800 -149.8074000   -92.5663500 -104.5333000   -12.7501300  -12.4124700
    1710000000    -1.1312530  117.2203000   -86.3210600 -145.6542000   -99.6526600  -22.6607200   -12.7242900  -12.3364500
    1713000000    -1.1433040  114.8690000   -91.1223100  147.4364000   -86.4375000  -91.7382700   -12.7280500  -12.4910800
    1716000000    -1.1469140  112.5380000   -83.9634600  178.0883000   -97.9880400  -92.9010100   -12.7301500  -12.5465800
    1719000000    -1.1645950  110.1783000   -85.4265700  -51.5900700   -91.0780900   69.6115100   -12.7313400  -12.5965900
    1722000000    -1.1736050  107.8887000   -93.0637000 -149.5417000   -88.2392700  107.2993000   -12.7282400  -12.6160400
    1725000000    -1.1866020  105.5712000   -83.8517600  -20.2667700   -88.9577300  135.3431000   -12.7168000  -12.6533500
    1728000000    -1.1966940  103.2642000   -95.4339200   26.8191500   -97.3066700  -16.0657300   -12.7122600  -12.7124500
    1731000000    -1.2149700  100.8759000   -89.3464400   53.6472200   -87.5184600  -89.4205500   -12.7129800  -12.7951400
    1734000000    -1.2284000   98.5257600   -90.3822000   56.7817800   -91.6075300  101.1448000   -12.7022000  -12.7631500
    1737000000    -1.2384240   96.2417100   -87.6756000  -83.3250900   -91.9515800  168.5679000   -12.6952000  -12.8483000
    1740000000    -1.2510100   93.9310200   -96.2808800  -45.7315900   -99.0880600   77.1353100   -12.6873300  -12.9154600
    1743000000    -1.2575440   91.6361600   -94.0109700  -36.3668100   -89.3514200   58.5546900   -12.6798800  -12.9337800
    1746000000    -1.2738210   89.2280800   -92.0485100 -104.9190000   -83.8470500  -52.9361600   -12.6817100  -13.0340400
    1749000000    -1.2765020   86.8643100   -92.5663000   61.5800400   -91.0166900  136.6626000   -12.6740800  -13.0608800
    1752000000    -1.2872890   84.4801700  -103.6552000  -22.4535900   -82.8836100  117.0278000   -12.6637300  -13.1215100
    1755000000    -1.3020970   82.1207500   -92.9854900  -45.5424800   -85.6793700 -164.6845000   -12.6547500  -13.1731300
    1758000000    -1.3121360   79.7579200   -87.4673100  -83.0495000   -92.6979100  107.0135000   -12.6444300  -13.2172000
    1761000000    -1.3256600   77.3553700   -85.7734500 -112.2407000   -86.0479700  114.8196000   -12.6330800  -13.3212800
    1764000000    -1.3261000   74.9739000   -90.1612100  139.5648000   -93.1866400  155.7353000   -12.6177200  -13.4275800
    1767000000    -1.3314020   72.5335200   -97.1862800   39.8062300   -95.8440800   61.6496500   -12.6041600  -13.5042400
    1770000000    -1.3392070   70.1248200   -91.8366900  -56.7276200  -102.5594000  -13.8286800   -12.6071300  -13.5190400
    1773000000    -1.3510700   67.6966700   -84.6558800   88.4597500   -87.7214800 -174.3598000   -12.5962100  -13.6156900
    1776000000    -1.3610530   65.2537800   -87.2726800  131.7548000   -84.0620900  -79.2680800   -12.5840400  -13.7693000
    1779000000    -1.3656000   62.8430500   -83.0289500  -20.8120100   -84.5906200   13.9668400   -12.5600300  -13.8064000
    1782000000    -1.3807390   60.3722000   -83.3091600  171.0816000   -92.2650100   -3.7195500   -12.5524900  -13.9092200
    1785000000    -1.3923870   57.8700400   -90.9942800   47.6907800   -82.9314100  120.3014000   -12.5243600  -13.9943200
    1788000000    -1.4045060   55.4117900   -86.0430500   47.2106700   -94.5701200  -46.5059200   -12.5046400  -14.1393100
    1791000000    -1.4146000   52.9084100   -84.6339400  -54.9283100   -79.9765500  104.0762000   -12.4840800  -14.2286700
    1794000000    -1.4273380   50.4321400   -84.2287800   43.0298000   -97.7273100 -125.4257000   -12.4532700  -14.3044300
    1797000000    -1.4451190   47.8991100   -85.2902500  137.4297000   -95.7150300 -103.3007000   -12.4300600  -14.4537600
    1800000000    -1.4548400   45.4009100   -85.5616100   79.9146200   -90.2261200 -159.0118000   -12.4044500  -14.5110100
    1803000000    -1.4656560   42.8826300   -92.1893800  104.6851000   -90.5162000  153.9341000   -12.3679000  -14.6646400
    1806000000    -1.4766120   40.3318400   -86.7419100  179.2800000   -93.4059600  125.0813000   -12.3430400  -14.7788300
    1809000000    -1.4787510   37.7775100   -95.0635500 -161.9281000   -89.8740300  131.1169000   -12.3077300  -14.8653200
    1812000000    -1.4963660   35.2058200   -90.1723800   73.6682900   -78.0592100  -16.2044600   -12.2853000  -14.9465600
    1815000000    -1.5144310   32.6161300   -90.8791800  -47.7828100   -73.8215500  157.8339000   -12.2668800  -14.9973500
    1818000000    -1.5211190   30.0686500   -97.9967400   90.0666000   -87.9205900  -44.9717000   -12.2252700  -15.1757000
    1821000000    -1.5211410   27.3801300   -93.5092600   17.5521800   -82.1372300 -105.9128000   -12.1970900  -15.1776300
    1824000000    -1.5371490   24.7978200   -89.6942200  130.4562000   -80.2666900  143.1354000   -12.1757400  -15.3345700
    1827000000    -1.5435320   22.1313200   -83.8849500  168.4699000   -91.6230400  -62.6416900   -12.1451400  -15.3876000
    1830000000    -1.5467380   19.4700700   -85.5479000   54.8222400   -86.6466800  101.5249000   -12.1160300  -15.4378800
    1833000000    -1.5575060   16.7330900   -85.7258700   96.4715900   -93.9278900 -148.5430000   -12.0959800  -15.6082900
    1836000000    -1.5610120   13.9801300   -86.1172600   51.4492600   -92.4335000    9.0553060   -12.0434800  -15.6031300
    1839000000    -1.5792150   11.3006200   -94.9214500 -167.0204000   -80.7478400   22.8814100   -12.0174400  -15.7077200
    1842000000    -1.5841340    8.4453140   -93.9400900  104.7711000   -81.8932000   14.5367000   -11.9916200  -15.7846900
    1845000000    -1.5883210    5.6935920   -87.2621000  -14.6956800   -87.5011500 -120.3966000   -11.9629400  -15.8636400
    1848000000    -1.5951890    2.8957400   -90.5494700  -70.1879700  -136.5271000  -94.8377800   -11.9279100  -16.0195400
    1851000000    -1.6086110    0.1446783   -92.1796400 -134.6202000   -90.3030400  -42.2645500   -11.9010300  -16.1820300
    1854000000    -1.6102570   -2.7407070   -97.8982100  171.1610000   -86.7484100  -23.8872700   -11.8798100  -16.2948800
    1857000000    -1.6192470   -5.6413490   -85.6422000  -30.3286200   -89.3555800  -11.0135500   -11.8435800  -16.3832100
    1860000000    -1.6406680   -8.4935320   -87.2433400  130.7443000   -88.1868900 -169.3130000   -11.8161500  -16.4891500
    1863000000    -1.6415560  -11.3546100   -95.2055700   97.2983900   -94.3544500 -161.2353000   -11.7938500  -16.6170300
    1866000000    -1.6537810  -14.2506600   -90.5410200  -43.2340500   -88.3617600   21.6510100   -11.7662900  -16.7879700
    1869000000    -1.6587400  -17.1456500   -90.5817600   36.4095700   -87.9892700  178.4044000   -11.7289200  -16.9336200
    1872000000    -1.6713530  -20.1043500   -91.6878100   42.3562900  -109.3754000  -20.7047700   -11.6971100  -17.1160600
    1875000000    -1.6845550  -23.0578900   -89.0660900 -107.4890000   -94.9274100 -130.8770000   -11.6635300  -17.2908300
    1878000000    -1.6919610  -26.0018900  -100.7613000  -17.3357900   -91.6404300  147.2568000   -11.6344400  -17.4446400
    1881000000    -1.7021220  -28.9648500   -90.6617700   80.3891800   -96.0271500  -20.0368600   -11.6006400  -17.6066200
    1884000000    -1.7131230  -32.0286800   -94.4073100  137.2061000   -91.6962900   17.3555900   -11.5678500  -17.7392900
    1887000000    -1.7176310  -35.0913100   -92.6986000 -150.0271000   -89.1501500   -6.3636000   -11.5368600  -17.9519600
    1890000000    -1.7226470  -38.1359400   -92.0874800  100.4093000   -86.2578200   75.3656100   -11.5002000  -18.1377600
    1893000000    -1.7416880  -41.1872700   -86.4014800  -52.2379900   -91.1153700  -29.5284600   -11.5030300  -18.3280200
    1896000000    -1.7533040  -44.3136700   -86.6384300   17.5048000   -87.2056900   67.8801300   -11.4744600  -18.4799900
    1899000000    -1.7607110  -47.4003600   -88.6846500 -108.5872000   -96.7606400   84.1096200   -11.4300600  -18.6591100
    1902000000    -1.7718650  -50.5760800   -90.8419200  -22.0475200   -94.1092100   15.1931200   -11.4010200  -18.9294800
    1905000000    -1.7900630  -53.7403400   -87.7019900  -56.1757100   -90.0086300  -46.6550100   -11.3634900  -19.1223300
    1908000000    -1.8089340  -56.9220300  -107.1534000  -59.9149100   -93.9638200   17.7768800   -11.3286100  -19.2852400
    1911000000    -1.8371620  -60.0649200  -107.8779000 -156.9983000   -88.8344700  -57.0298200   -11.2846400  -19.5089000
    1914000000    -1.8355390  -63.3329700   -91.2396400  -36.8245800   -98.0443000   10.5973900   -11.2499300  -19.6554200
    1917000000    -1.8524800  -66.6016000   -92.8523900 -145.8931000   -86.3961000 -107.0043000   -11.2160200  -19.8445000
    1920000000    -1.8739790  -69.8896900   -88.3564900  -26.3913800   -92.1468700  -34.6909100   -11.1752600  -20.0958900
    1923000000    -1.8903670  -73.2055100   -91.5929000 -130.0867000   -87.7227300  -39.9144100   -11.1437400  -20.3865800
    1926000000    -1.9069160  -76.5557800   -99.9511100 -122.9202000   -92.4886300   90.4040800   -11.1013700  -20.6505700
    1929000000    -1.9236520  -79.8172900   -95.2563900 -141.3336000   -97.7592000 -113.1589000   -11.0668100  -20.7951200
    1932000000    -1.9448420  -83.1634000   -96.8376000   66.1667300   -92.1659000 -112.9574000   -11.0263800  -21.0419600
    1935000000    -1.9582830  -86.5863600   -98.5839100 -138.8621000   -95.1837300 -147.0362000   -10.9882800  -21.3032500
    1938000000    -1.9785670  -89.9403800   -92.3590200 -174.1431000   -94.5215700  -82.9744100   -10.9483000  -21.5423700
    1941000000    -1.9905330  -93.3518600   -84.6243300  -38.4198900   -96.7550800  114.3494000   -10.9159700  -21.6726300
    1944000000    -2.0047360  -96.6981400   -88.7193100 -172.5166000   -86.7031900  -70.4701000   -10.8778800  -21.8452600
    1947000000    -2.0153540 -100.1213000   -91.5407900  162.7605000   -92.3453100  -13.0538100   -10.8363100  -22.1556000
    1950000000    -2.0365320 -103.5455000  -105.0380000 -148.5513000   -92.3970900   -9.1331680   -10.7984000  -22.4789000
    1953000000    -2.0423080 -106.9624000   -91.6338300  -61.1309500   -88.0820400  -53.7395400   -10.7692500  -22.6402300
    1956000000    -2.0660890 -110.4744000   -92.6048400  179.2618000   -91.6039600  -72.1724500   -10.7215700  -22.9426200
    1959000000    -2.0721980 -113.8623000   -89.1456100 -176.8432000   -84.3128800  -63.4556900   -10.6920600  -23.2285900
    1962000000    -2.1041200 -117.3785000   -97.5142600  178.9813000   -89.2830800 -113.0435000   -10.6577500  -23.3982900
    1965000000    -2.1294970 -120.7390000   -92.0351100  149.7175000   -90.8326000   34.0960800   -10.6104000  -23.5490000
    1968000000    -2.1481900 -124.1817000   -91.1836700  -69.9335400   -83.9814100 -136.6744000   -10.5758300  -23.7853800
    1971000000    -2.1795650 -127.6055000   -94.3701900 -106.1047000   -86.8370900   90.8699400   -10.5444500  -24.0807600
