! 1/1/2000 12:29:00 AM
! C:\DOCUMENTS AND SETTINGS\VECTORSTARUSER\DESKTOP\231101\ANT_2_42_100R.S2P
! CHANNEL.1
! TR.MEASUREMENT
! CORRECTED.DATA
# HZ S DB R 50.0
! FREQ.HZ         S11DB        S11A          S21DB        S21A          S12DB        S12A          S22DB        S22A
    1500000000    -4.4880270  -51.3974300   -83.3609300  -31.8548000   -91.2182600  104.3890000   -12.9693700   -6.9847110
    1503000000    -4.5291890  -52.7506600   -95.2312900  -94.7409400   -93.0574000 -144.9388000   -12.9863200   -6.8848790
    1506000000    -4.5646340  -54.1692700   -88.8277800  170.1623000   -81.9954100 -118.4966000   -13.0369500   -6.8338430
    1509000000    -4.6094440  -55.4668900   -87.4388400  142.0913000   -80.7601300  -48.3856100   -13.0482900   -6.7017370
    1512000000    -4.6531110  -56.8362000   -94.5635200   80.2566600   -90.9469800   98.3009800   -13.0715800   -6.5954030
    1515000000    -4.6905780  -58.2123400   -91.0843500  -59.1400000   -92.2760000   27.0901100   -13.0720100   -6.4134410
    1518000000    -4.7241820  -59.6475300   -83.6564200  -20.6003300   -88.3906600   66.9476400   -13.0792100   -6.3650530
    1521000000    -4.7572680  -61.1130200   -91.9686600 -129.9464000   -88.9360000  162.8613000   -13.0821100   -6.4157090
    1524000000    -4.7777360  -62.4440000   -89.4458700   99.2192500   -99.2930100 -104.0798000   -13.0876900   -6.3518940
    1527000000    -4.8204360  -63.8044400   -88.0194700  138.0539000   -89.2520900  150.8963000   -13.0845900   -6.2748930
    1530000000    -4.8548450  -65.2220000   -88.4572200   88.5146400   -84.9527100   76.9259100   -13.0917900   -6.3271220
    1533000000    -4.8783520  -66.6462200   -92.0944200   13.9365500   -86.3862000    3.7173430   -13.0866900   -6.2727360
    1536000000    -4.9284310  -67.9626700   -88.2497600  127.4854000   -85.1248300  -43.5710900   -13.0870900   -6.3665050
    1539000000    -4.9559400  -69.4175400   -86.3054400  -19.7904900   -95.7446700   37.8545600   -13.0865300   -6.3596750
    1542000000    -5.0005300  -70.8310000   -88.8632200 -178.8639000   -82.3539000  171.3571000   -13.0876900   -6.3278770
    1545000000    -5.0473310  -72.2641200   -87.8219200 -165.8388000   -85.8969100   86.1137900   -13.0690100   -6.2739610
    1548000000    -5.0842500  -73.6297700   -88.7822800 -132.8410000   -85.4106100  -16.0858000   -13.0594000   -6.3516960
    1551000000    -5.1231210  -75.0065500   -87.1024200  134.0332000   -92.2728000   32.1779000   -13.0494300   -6.4671530
    1554000000    -5.1548090  -76.4581000   -91.5936300  162.4465000   -94.8473500   16.3457100   -13.0377200   -6.4269810
    1557000000    -5.2032930  -77.8220600   -93.9145600  103.6458000   -89.3712600  -95.2971900   -13.0180500   -6.5333840
    1560000000    -5.2488660  -79.2414800   -83.2521900  104.2225000   -89.5569200 -112.0534000   -13.0077300   -6.4766040
    1563000000    -5.2864880  -80.6493500   -87.7515300  -82.1784100   -91.4793100  -68.8198400   -12.9886200   -6.5543470
    1566000000    -5.3319020  -82.0483900   -92.1528500 -159.8817000   -89.7226400  179.5530000   -12.9769800   -6.6056500
    1569000000    -5.3858150  -83.4502000   -91.1953400   47.4114700  -102.1932000  164.1080000   -12.9480200   -6.7039150
    1572000000    -5.4292920  -84.8874800   -84.9723000   21.7169900   -88.2143200  157.1827000   -12.9517600   -6.7075510
    1575000000    -5.4839530  -86.3607900   -98.5559000   97.1048100   -82.9057200  107.7687000   -12.9265700   -6.7687620
    1578000000    -5.5331080  -87.8188400   -86.1354100   71.3207800   -87.9354600  148.9133000   -12.9034400   -6.8380220
    1581000000    -5.5841350  -89.2900400   -90.7328400   -8.8642990   -88.3616500  170.6870000   -12.8978000   -6.9333130
    1584000000    -5.6382420  -90.7220700   -86.4350500 -101.3735000   -86.1599900   -3.9306860   -12.8639900   -6.8833020
    1587000000    -5.6872710  -92.2041000   -86.1982300  -24.4306000   -85.2302600 -150.1827000   -12.8489000   -6.9796000
    1590000000    -5.7417370  -93.7522000   -90.0339800   97.7876400   -92.9683600   28.5745300   -12.8333600   -7.0663980
    1593000000    -5.7942780  -95.1882900   -87.6956900   -8.4876500   -86.4362000 -162.2559000   -12.8290300   -7.1967910
    1596000000    -5.8517060  -96.7501100   -93.8184500   72.8284100   -86.0445900  -22.1536700   -12.8083800   -7.2956500
    1599000000    -5.9054170  -98.3066200  -103.6887000   61.6046100   -96.7827300  132.1076000   -12.8052000   -7.4327800
    1602000000    -5.9556630  -99.8311400   -93.1790800  -91.5301700   -85.0463000   98.6300700   -12.7870900   -7.5170860
    1605000000    -6.0105480 -101.3706000   -86.2835300  -87.3631800  -104.9870000  112.3991000   -12.7788200   -7.6473940
    1608000000    -6.0600360 -103.0239000   -86.8946500  158.0007000   -87.0161500  154.1935000   -12.7636900   -7.8042800
    1611000000    -6.1217190 -104.5793000   -91.3090400  -32.7201500   -89.0223600 -125.3932000   -12.7682700   -7.9710910
    1614000000    -6.1750710 -106.1081000   -87.8635800    5.8155310   -87.0801400 -161.9219000   -12.7682700   -8.1292080
    1617000000    -6.2297200 -107.6807000   -87.9271600  -22.9611300   -93.6252500   50.7447500   -12.7568000   -8.2986490
    1620000000    -6.2777070 -109.2720000   -90.2592000  -54.2979500   -89.7964600  102.0623000   -12.7563000   -8.4119680
    1623000000    -6.3308290 -110.9218000   -83.8701700  175.5189000   -84.9358800  166.5601000   -12.7614500   -8.5941090
    1626000000    -6.3785130 -112.5449000   -86.1872400 -121.6866000   -85.8418400  170.7131000   -12.7593900   -8.7747370
    1629000000    -6.4177760 -114.1190000   -88.6591000  175.5349000   -96.6570700  -92.3406800   -12.7557800   -8.9275310
    1632000000    -6.4767810 -115.7208000   -88.7378200  108.3896000   -79.9377300  -58.8807100   -12.7539100   -9.0926060
    1635000000    -6.5226980 -117.3037000   -86.0976600    7.6681550   -87.1712600  -99.7600500   -12.7548500   -9.2742550
    1638000000    -6.5739680 -118.9158000   -86.0024300  -56.9631600   -83.9343400  -13.8905800   -12.7808500   -9.3897330
    1641000000    -6.6159840 -120.5292000  -101.1543000   71.2870300   -83.7292900   64.2043400   -12.7974100   -9.5484360
    1644000000    -6.6677480 -122.1452000   -82.2255600 -150.2781000   -86.2481400   43.8875700   -12.7787200   -9.7286200
    1647000000    -6.7061780 -123.7393000   -88.1228300  149.2679000   -88.0952800  177.5248000   -12.7817200   -9.9668150
    1650000000    -6.7461300 -125.3454000   -91.3238400  172.4506000   -83.9001800  103.0055000   -12.7871300  -10.1689200
    1653000000    -6.7896720 -126.9750000   -88.7603600   -8.6965820   -87.8593400  -14.7523800   -12.7931500  -10.2973800
    1656000000    -6.8314270 -128.6041000   -93.4520600   66.2609300   -96.1968800 -120.7947000   -12.7907600  -10.4496900
    1659000000    -6.8676110 -130.1765000   -91.4118200 -113.3334000   -90.2507800   83.1559400   -12.7933900  -10.5998200
    1662000000    -6.9150830 -131.7962000  -101.2402000   -7.1457950   -86.5276500 -136.9656000   -12.7899600  -10.7397300
    1665000000    -6.9665790 -133.3615000   -91.8994400   30.8506700   -88.5844700  112.0204000   -12.7895300  -10.9449400
    1668000000    -7.0077110 -134.8871000  -115.9290000 -138.9000000   -84.2563200 -143.5450000   -12.7854600  -11.1592400
    1671000000    -7.0675420 -136.5049000   -95.4521000    5.4211580   -85.4289200  -46.6514100   -12.7844700  -11.2694900
    1674000000    -7.1088640 -138.1299000  -103.7091000 -172.7551000   -85.0002300  -51.8736700   -12.7829700  -11.4502700
    1677000000    -7.1594600 -139.7154000   -89.6904000 -116.9669000   -92.7522700  -73.8897500   -12.7918100  -11.5821500
    1680000000    -7.1973530 -141.3524000   -87.1580500  150.6185000   -99.0400500    2.8971950   -12.7828900  -11.6995800
    1683000000    -7.2520600 -143.0223000   -94.2120100  128.7435000   -97.3286600 -174.6370000   -12.7825200  -11.8779400
    1686000000    -7.3112600 -144.4944000   -95.3454100  116.9046000   -87.4402800  -68.6642200   -12.7761400  -11.9791600
    1689000000    -7.3513930 -146.2074000   -82.0240500 -104.5047000   -89.9317600  -60.6551200   -12.7755200  -12.0130800
    1692000000    -7.4046460 -147.8116000  -109.6035000   57.7570600   -87.1606600   49.5675800   -12.7738900  -12.1014000
    1695000000    -7.4607120 -149.4453000   -92.4217200  -81.6236900   -85.2392700   88.9396400   -12.7745600  -12.1640600
    1698000000    -7.5071260 -151.1136000   -85.7288500   77.3971600   -96.4539800 -103.8030000   -12.7657300  -12.2635500
    1701000000    -7.5673040 -152.7455000   -95.5333600 -157.5727000   -91.8410600  -18.7717000   -12.7645400  -12.3544700
    1704000000    -7.6219920 -154.4037000   -93.0905600  -54.6952300   -86.1158100  -68.0868900   -12.7450400  -12.4132400
    1707000000    -7.6738000 -156.0232000   -90.3885500   19.8565100   -84.7873400 -161.7510000   -12.7455800  -12.4311600
    1710000000    -7.7276990 -157.7678000   -91.5027500  134.0026000   -90.3655100  106.8833000   -12.7259000  -12.3609100
    1713000000    -7.7841670 -159.4778000   -93.2324400  101.7758000   -93.2012600   58.0617700   -12.7240400  -12.5069900
    1716000000    -7.8305640 -161.0897000   -90.9564900  139.6963000   -86.9417100  -22.1463600   -12.7258900  -12.5688800
    1719000000    -7.8821120 -162.8098000  -100.9457000  123.1910000   -99.8659800   54.0285300   -12.7299400  -12.6147600
    1722000000    -7.9336360 -164.4573000   -83.1325400 -171.9754000   -90.8340800  -34.3182400   -12.7260400  -12.6539600
    1725000000    -7.9851430 -166.1158000   -96.5895000 -112.8143000   -87.6321700  -23.7631300   -12.7147500  -12.6806700
    1728000000    -8.0335840 -167.8032000   -91.6060000   49.8243800   -95.4914100  152.0325000   -12.7104900  -12.7219600
    1731000000    -8.0894680 -169.5544000   -92.4581500   29.1789400   -98.4402500  -96.2032700   -12.7132300  -12.8172200
    1734000000    -8.1429440 -171.1937000   -80.9207500  -80.0881900   -89.2465700  119.5652000   -12.7044900  -12.7866000
    1737000000    -8.1895670 -172.8838000   -88.3069200 -132.9427000   -93.9453300 -120.5506000   -12.6930800  -12.8410800
    1740000000    -8.2377700 -174.5758000   -87.6316200   44.3037500   -87.9910300   29.2834700   -12.6853400  -12.9023200
    1743000000    -8.2840430 -176.2043000   -88.6699200  -97.9738700   -84.2736400 -102.3881000   -12.6793300  -12.9652900
    1746000000    -8.3290220 -177.9276000   -86.4865700  122.7321000  -104.4083000   -7.8261810   -12.6794100  -13.0190300
    1749000000    -8.3565730 -179.6502000   -90.2240700  127.1397000   -88.7429700   74.3033800   -12.6702900  -13.0424300
    1752000000    -8.4039960  178.7145000   -90.1342000  -70.8430300   -91.8087400   51.3597300   -12.6607200  -13.1155900
    1755000000    -8.4531630  176.9957000   -98.1733800  128.1873000   -87.6398800   98.3375700   -12.6539100  -13.1678500
    1758000000    -8.4912500  175.3475000   -86.7345000 -101.7907000   -97.3180500  -63.7337000   -12.6424700  -13.2195600
    1761000000    -8.5300870  173.6484000   -88.0171300   85.0899400  -106.2923000   74.3305700   -12.6315200  -13.3417600
    1764000000    -8.5745500  172.0017000   -86.2778500   74.9419200   -91.6225400  164.4976000   -12.6180200  -13.4073600
    1767000000    -8.6036000  170.3522000   -81.6016200    6.5386280   -95.6566500   54.5212100   -12.6020000  -13.5138300
    1770000000    -8.6374450  168.7110000   -82.4424600    0.6608216   -88.1781400 -156.7789000   -12.6139900  -13.6188900
    1773000000    -8.6741340  167.0517000   -91.8534500   11.3835900  -100.3731000   96.3154100   -12.5982800  -13.6747000
    1776000000    -8.7085420  165.3888000   -88.2236600   71.0690500   -95.4063800  -10.8977400   -12.5737600  -13.7222000
    1779000000    -8.7372840  163.8297000   -86.6497000  132.7064000   -87.3799300   69.9859500   -12.5614600  -13.7974300
    1782000000    -8.7803850  162.2155000  -115.8382000    3.2380290   -83.9975400   80.4318200   -12.5483600  -13.9471600
    1785000000    -8.8065090  160.5880000   -91.2944900  -97.8009000   -95.6074100 -156.4248000   -12.5272700  -14.0711600
    1788000000    -8.8355610  158.9708000   -91.4389000   82.5498000   -87.1217500  160.9794000   -12.5053700  -14.0890600
    1791000000    -8.8775350  157.4025000   -82.5389000 -161.1499000   -88.7908300 -104.2718000   -12.4827300  -14.2769900
    1794000000    -8.9033880  155.7759000   -86.6367600 -109.5379000  -100.0687000   59.1506800   -12.4521100  -14.2930600
    1797000000    -8.9414300  154.2033000   -96.1577700   85.2609600   -85.1108200   86.3642700   -12.4285100  -14.4394800
    1800000000    -8.9804900  152.6445000   -90.9171600   64.9218200   -88.5161300  138.0775000   -12.4019500  -14.4933800
    1803000000    -9.0079220  151.0983000   -84.3126800  117.8767000   -81.8183500   23.5693100   -12.3695000  -14.6438200
    1806000000    -9.0532670  149.5021000   -86.8514900  -69.9953100   -92.2612800  -13.4324900   -12.3438700  -14.7803200
    1809000000    -9.0882100  147.9649000  -101.5379000   53.3589600   -93.7164300   66.0466100   -12.3123300  -14.8770400
    1812000000    -9.1295740  146.4481000   -92.5397300  105.9070000   -90.9738500 -128.7950000   -12.2854300  -15.0069800
    1815000000    -9.1602840  144.9063000   -87.8406200 -141.1487000   -90.6933700  -50.6557000   -12.2592000  -15.0822400
    1818000000    -9.2012610  143.3817000   -90.4561500 -167.7429000   -92.2310300  -45.1863900   -12.2262100  -15.1889500
    1821000000    -9.2348380  141.8024000   -90.3469500  -24.7889800   -91.2769200   -1.4680370   -12.1957800  -15.2515600
    1824000000    -9.2771390  140.3639000   -88.9324000  177.8754000   -89.6089600  -84.3916100   -12.1828800  -15.2835000
    1827000000    -9.3202710  138.8299000  -101.0522000   87.8403500   -83.1870400   58.0346700   -12.1392100  -15.4719600
    1830000000    -9.3587520  137.2469000   -82.7611400  -31.9185400   -88.3487600 -139.7690000   -12.1146400  -15.5110200
    1833000000    -9.3961940  135.6974000   -94.0608200  -26.7577600   -92.6756700   31.2987400   -12.0833900  -15.6896800
    1836000000    -9.4377310  134.1726000   -90.9272400   -2.8780430   -92.1040800  -44.6913700   -12.0447400  -15.6124500
    1839000000    -9.4738650  132.7001000   -99.4543800   34.7020500  -108.6055000   37.1941900   -12.0180700  -15.7020300
    1842000000    -9.5184610  131.1285000   -88.6206000   16.5986200   -98.6435100   83.5907700   -11.9931100  -15.7715700
    1845000000    -9.5639110  129.5683000   -86.0805200 -152.3634000   -86.6109600  -65.3833300   -11.9618500  -15.8755400
    1848000000    -9.6094230  127.9731000   -93.8696400    7.3956970   -85.3478700   89.6161700   -11.9275800  -16.0144900
    1851000000    -9.6465170  126.4972000  -109.2004000 -137.0746000   -88.0493500 -116.8074000   -11.8973000  -16.1934700
    1854000000    -9.6976720  124.9773000   -91.6263200  130.6388000   -96.4539200 -107.5591000   -11.8766800  -16.2864100
    1857000000    -9.7417490  123.4464000  -104.6071000  135.8739000   -89.5434900    6.9502050   -11.8423900  -16.3829200
    1860000000    -9.7832400  121.9106000   -89.5066800   22.5895700   -84.2574300  105.9814000   -11.8122700  -16.4860200
    1863000000    -9.8236810  120.4115000   -85.7493900  165.4151000   -91.9800900  143.3510000   -11.7917200  -16.6116900
    1866000000    -9.8636880  118.8714000   -84.6809500   24.4585500   -91.4801500   15.3723200   -11.7650700  -16.7852800
    1869000000    -9.8963410  117.3384000   -87.5590600  119.7081000   -95.1136000  132.0984000   -11.7254900  -16.9421200
    1872000000    -9.9388960  115.8661000   -91.8982800  117.8926000   -90.7134200    6.2167920   -11.6930800  -17.1458700
    1875000000    -9.9843300  114.3884000   -92.3996000 -165.1903000   -84.6178400  108.5037000   -11.6619300  -17.3129800
    1878000000   -10.0190700  112.8984000   -86.4750700  116.9283000   -84.1427800   18.9584000   -11.6344300  -17.4551200
    1881000000   -10.0495400  111.4167000   -98.0805100  -81.2287600   -83.3532300  -89.3220100   -11.5987600  -17.6045800
    1884000000   -10.0842800  109.9724000   -91.2784700   98.9799900   -97.5494800  -85.5825400   -11.5699200  -17.7643700
    1887000000   -10.1070900  108.4660000   -92.4945900   25.2858600   -83.6766500  165.4836000   -11.5377900  -17.9537700
    1890000000   -10.1472400  107.0208000   -87.3452100   33.2075900   -84.0230100  114.0125000   -11.4997200  -18.1390500
    1893000000   -10.1721000  105.7150000   -84.4259300 -160.4866000   -91.4087800  -28.3455100   -11.5075500  -18.3313000
    1896000000   -10.2012100  104.2260000   -94.1408200  -58.6375200   -91.5125900   44.0627900   -11.4753500  -18.5071600
    1899000000   -10.2217400  102.8570000   -90.4963800  -91.3566600   -88.6325700 -104.8753000   -11.4307600  -18.6521200
    1902000000   -10.2520600  101.4599000   -88.3011900  -49.8673900   -88.9606300 -118.2522000   -11.4017500  -18.8507300
    1905000000   -10.2792800  100.1109000   -92.2367500 -173.4981000   -90.4063300   78.9841000   -11.3633400  -19.1318300
    1908000000   -10.3098700   98.7465700   -90.9534600  -90.0878300   -98.3388400  128.0535000   -11.3295300  -19.3243800
    1911000000   -10.3348600   97.4672900   -88.8497200 -140.2619000   -84.7240800 -136.7498000   -11.2882700  -19.4909600
    1914000000   -10.3669600   96.1183500   -86.0899300 -119.4371000   -88.9454600   26.5324600   -11.2453700  -19.6536200
    1917000000   -10.3944500   94.8220100   -86.7186700   -8.2898430   -95.1432300  -90.7187900   -11.2143300  -19.9281700
    1920000000   -10.4396400   93.5427700   -87.6610000   75.8260000   -94.3282300   37.0110000   -11.1762100  -20.0954800
    1923000000   -10.4735500   92.2686100   -95.4628100   20.4340400   -89.9758100   -1.1051420   -11.1418400  -20.3536700
    1926000000   -10.5074600   90.9973100  -107.9685000   -4.5331070  -101.9990000 -110.3032000   -11.0994400  -20.6144600
    1929000000   -10.5538000   89.8138400   -91.0216500   73.8020200   -91.3556700   73.8019200   -11.0655200  -20.7903400
    1932000000   -10.5883500   88.6178000   -87.4161900   85.8467700   -88.4101300  -73.4534900   -11.0241700  -21.0588000
    1935000000   -10.6334000   87.3825200   -91.2069100   -5.7752100   -86.4258900 -168.7862000   -10.9855700  -21.2685600
    1938000000   -10.6811600   86.2179900   -92.0966700 -121.1542000   -93.4413600   24.8069300   -10.9498600  -21.5713000
    1941000000   -10.7377300   84.9978900   -97.3888900   59.9668700   -88.8264900  -17.9363900   -10.9114000  -21.6905400
    1944000000   -10.7844400   83.8364600   -92.8220400 -146.6271000   -88.0203700  -49.9790500   -10.8763100  -21.8682400
    1947000000   -10.8417900   82.6548800  -110.0934000 -148.6814000   -88.8417100  -93.6023300   -10.8297800  -22.2074700
    1950000000   -10.8972000   81.4323700   -97.3070400  109.5967000   -85.6330900  -97.0916100   -10.7995500  -22.4430600
    1953000000   -10.9532100   80.2573200   -94.5830500   61.1627600   -89.1479900 -108.4998000   -10.7659000  -22.6458400
    1956000000   -11.0146200   79.0251200  -102.9781000   23.4952600   -98.8380000 -135.6137000   -10.7304500  -22.9416400
    1959000000   -11.0812000   77.8063700   -96.9281000    8.2027210  -103.5246000  128.5081000   -10.6978600  -23.2338500
    1962000000   -11.1434200   76.5821900   -92.2434200   -1.9695370   -93.4614900 -171.6423000   -10.6608300  -23.4699300
    1965000000   -11.2086400   75.4081000   -94.9691000  132.2422000   -88.4209100 -146.2202000   -10.6126200  -23.5525000
    1968000000   -11.2714800   74.2559000   -97.1237200    8.3798660   -87.9402200  -66.3898500   -10.5755100  -23.7835100
    1971000000   -11.3371000   73.0366200   -98.3958400 -135.5123000  -103.0962000  124.3182000   -10.5461900  -24.0796000
