! 1/1/2000 12:27:57 AM
! C:\DOCUMENTS AND SETTINGS\VECTORSTARUSER\DESKTOP\231101\ANT_2_42_INFR.S2P
! CHANNEL.1
! TR.MEASUREMENT
! CORRECTED.DATA
# HZ S DB R 50.0
! FREQ.HZ         S11DB        S11A          S21DB        S21A          S12DB        S12A          S22DB        S22A
    1500000000    -0.5967700  -74.0718400  -102.9473000  -30.1440200   -88.2002900  -89.9378900   -12.9680800   -6.9866310
    1503000000    -0.6015830  -75.7742200   -85.0029900    6.2158480   -84.7321900 -164.9864000   -12.9842100   -6.9095280
    1506000000    -0.6007949  -77.5374100   -85.6958800  105.5691000   -93.3072100  -37.4698400   -13.0410000   -6.8087620
    1509000000    -0.6226399  -79.2121200   -90.4962000   78.5917900   -84.2488800 -155.7754000   -13.0502900   -6.6664650
    1512000000    -0.6313605  -80.9049800   -94.6846000 -174.1292000   -87.4055100   11.3221200   -13.0699500   -6.6191050
    1515000000    -0.6235691  -82.7467200   -89.8130200 -133.7198000   -92.5791500  106.0046000   -13.0754100   -6.4759680
    1518000000    -0.6221266  -84.5330600   -87.5352900 -165.5682000   -81.2988000 -177.9115000   -13.0841400   -6.4375210
    1521000000    -0.6151707  -86.3956600   -93.2902900  124.4104000   -90.3864900  -31.0934600   -13.0748800   -6.4210560
    1524000000    -0.5953904  -88.0846300   -88.7973900   53.5876200   -90.1395500  -81.0826800   -13.0847100   -6.2874900
    1527000000    -0.6037486  -89.8786700   -92.5446200 -131.5687000   -91.8555000  166.3755000   -13.0889500   -6.3525190
    1530000000    -0.5987687  -91.6844500   -88.7530500  -28.7856500   -82.9963800  142.8718000   -13.0950400   -6.2550370
    1533000000    -0.5892209  -93.5279300   -94.2979300  104.6546000   -89.1726800   88.3355600   -13.0880700   -6.2724290
    1536000000    -0.6038227  -95.2462200   -92.0536700   87.0357600  -106.6401000   58.5627700   -13.0861600   -6.3344220
    1539000000    -0.5996191  -97.1651900   -84.8421400   53.4797000   -89.2773600  -33.9852800   -13.0854800   -6.3553240
    1542000000    -0.6096190  -99.0305900   -95.9944500  -61.1934200   -94.6662500  167.8168000   -13.0856000   -6.2844590
    1545000000    -0.6110910 -100.8949000   -91.1215800   -2.0070920   -86.3100000   55.2463200   -13.0739100   -6.3695210
    1548000000    -0.6156652 -102.7009000   -98.6513400   95.2291700   -93.8759000  -18.6605300   -13.0593700   -6.3037540
    1551000000    -0.6158274 -104.5974000   -96.2854300  -10.5149300   -89.8050700  -59.5753600   -13.0479600   -6.4461040
    1554000000    -0.6120458 -106.4829000   -98.5660200 -158.4246000   -86.7142500  -54.5417500   -13.0357900   -6.4393100
    1557000000    -0.6213398 -108.3417000   -98.1016100  125.9790000   -83.9561900  144.1127000   -13.0202100   -6.5546940
    1560000000    -0.6311714 -110.2389000   -86.0681500  165.7419000   -92.5652600 -166.8327000   -12.9954300   -6.5006390
    1563000000    -0.6169853 -112.1561000   -96.7251700 -124.2464000   -95.7168600 -147.6527000   -12.9926900   -6.5061610
    1566000000    -0.6320851 -114.0090000   -89.3032200 -165.8444000   -89.4183200 -113.2961000   -12.9691300   -6.6789700
    1569000000    -0.6394824 -115.9735000   -83.2293300   48.4652100  -103.2878000  140.8813000   -12.9546500   -6.6919210
    1572000000    -0.6399885 -117.8463000   -88.6690500  -93.5018400   -88.9947100  -13.6610700   -12.9455200   -6.7540000
    1575000000    -0.6541297 -119.8269000   -93.7543600   -6.7282250   -88.5507500  -17.2198700   -12.9329100   -6.7282760
    1578000000    -0.6596102 -121.7995000   -88.1801100   46.1040800   -82.4744000  -77.8448600   -12.9046100   -6.7550010
    1581000000    -0.6758642 -123.7979000   -88.2613800  112.2670000   -87.5042600   35.4236200   -12.8958300   -6.9200880
    1584000000    -0.6808350 -125.7430000   -85.9902100  126.2062000   -98.6756800 -141.9526000   -12.8666000   -6.8977380
    1587000000    -0.6845355 -127.7432000   -93.7740200 -121.9802000   -92.2711600  -14.5145500   -12.8494600   -6.9600520
    1590000000    -0.6921470 -129.7609000  -109.9914000  -88.6087400   -83.4367800  130.2263000   -12.8361000   -7.0610950
    1593000000    -0.6980706 -131.7395000   -87.3448500  -48.9084400   -89.4539000  -96.0913400   -12.8280000   -7.2048180
    1596000000    -0.7117660 -133.8086000   -86.8542600  123.9383000   -87.8580900  -69.7639700   -12.8102000   -7.2932480
    1599000000    -0.7154378 -135.8413000   -96.2943600  113.7206000  -101.4180000   32.1443400   -12.8035800   -7.4123770
    1602000000    -0.7166576 -137.8788000   -91.6800300   55.1458500  -101.4792000  -20.9910400   -12.7897300   -7.5227610
    1605000000    -0.7281693 -139.9210000   -98.2875700 -103.9512000   -82.8104500  -40.7093200   -12.7811400   -7.6465350
    1608000000    -0.7260268 -142.0439000   -96.1247600  128.5801000   -86.1033800  113.8528000   -12.7633300   -7.7949390
    1611000000    -0.7369434 -144.0779000   -91.2696800 -125.2541000   -90.1268600  -55.9894400   -12.7671200   -7.9511870
    1614000000    -0.7430316 -146.0609000   -88.9161100  -20.2050200   -87.0795700 -146.1289000   -12.7679400   -8.1245770
    1617000000    -0.7540783 -148.1132000   -91.6963300   28.6203500   -87.8017100   24.3462900   -12.7584100   -8.2955760
    1620000000    -0.7531097 -150.2228000   -93.4550500  -74.2769100   -87.0278500  -74.8104200   -12.7579800   -8.4342240
    1623000000    -0.7585520 -152.3338000   -88.6608100   99.2551300   -90.2850000  -12.7463100   -12.7587600   -8.5966800
    1626000000    -0.7618217 -154.4609000   -86.7846600   -5.4617480   -85.6154500  -29.0871400   -12.7553700   -8.7744060
    1629000000    -0.7562394 -156.4609000   -85.7687800  -70.7129800   -99.8598900   45.9817300   -12.7560400   -8.9233360
    1632000000    -0.7698660 -158.5795000   -84.8777800  114.2175000   -95.7080100  -61.9684300   -12.7577100   -9.0657260
    1635000000    -0.7744120 -160.6544000   -91.1152700    2.0925820  -101.6503000  118.0667000   -12.7617900   -9.2780260
    1638000000    -0.7828753 -162.7523000   -90.5322400   67.5302700   -88.2097600  -23.6636100   -12.7958100   -9.4405150
    1641000000    -0.7874926 -164.8618000   -87.2036700  166.2736000   -87.1476700    3.1677310   -12.7941900   -9.6164170
    1644000000    -0.8005274 -167.0007000   -86.8415100 -174.1031000   -97.6702700 -169.2016000   -12.7795500   -9.7869340
    1647000000    -0.7964164 -169.1230000   -86.2714800  -13.5609900   -96.0539300   14.8229200   -12.7783500   -9.8902060
    1650000000    -0.7986456 -171.2223000   -91.1501300  -49.9503300   -93.4457300    8.1056860   -12.7864600  -10.1886300
    1653000000    -0.8068398 -173.4024000   -87.2997700 -100.8490000  -102.3640000  -33.0799900   -12.7936600  -10.2510900
    1656000000    -0.8127410 -175.5273000   -91.0512700  165.1233000   -86.6223800   94.3506200   -12.7944000  -10.4316500
    1659000000    -0.8131360 -177.6716000  -104.7978000 -140.6295000   -88.8151200   54.5216200   -12.7881500  -10.6295200
    1662000000    -0.8244396 -179.8133000   -87.6005200 -176.1260000   -97.2493300  -81.0711900   -12.7873200  -10.7724800
    1665000000    -0.8369101  178.0957000   -88.8983100  -66.4843900   -84.9544100  -67.9959600   -12.7874500  -10.9210600
    1668000000    -0.8425431  175.9590000   -84.3626500 -156.7945000   -86.3374000  -34.3102500   -12.7810200  -11.0461600
    1671000000    -0.8653563  173.8062000   -87.8505600   69.1493700   -86.0801400 -141.6930000   -12.7836400  -11.2760200
    1674000000    -0.8713056  171.6403000   -89.3134000  125.0078000   -90.2508900  -88.7436900   -12.7893000  -11.4392700
    1677000000    -0.8780565  169.4635000   -87.0273700 -173.7121000   -86.9404100 -120.2291000   -12.7841600  -11.5075300
    1680000000    -0.8768846  167.2349000  -101.9199000   94.7037600   -90.6116900   15.4423900   -12.7874600  -11.6765300
    1683000000    -0.8956695  165.0042000   -91.1245100   97.2856400   -86.0602500  -12.0025800   -12.7808000  -11.8599000
    1686000000    -0.9124888  162.8961000   -88.9147200  -43.5692600   -95.6827100  116.3251000   -12.7782100  -11.8816100
    1689000000    -0.9206737  160.6758000   -94.8864100  -62.7219000   -94.0020700  141.7322000   -12.7795500  -12.0363700
    1692000000    -0.9369952  158.4618000   -84.4818800 -100.6497000   -98.7056600   -0.9195511   -12.7755800  -12.1229000
    1695000000    -0.9629481  156.2757000   -92.9892300  128.5874000   -91.1477800 -134.6592000   -12.7663500  -12.2697900
    1698000000    -0.9640798  154.0022000   -95.7069300  -58.0940600   -89.5259600 -171.5369000   -12.7596900  -12.3215300
    1701000000    -0.9875005  151.8558000   -92.8917500  151.6196000   -91.1200600  -30.3951000   -12.7557200  -12.3553900
    1704000000    -0.9981912  149.6513000   -84.8685600  159.4850000   -86.3116000   69.7227600   -12.7490300  -12.3936500
    1707000000    -1.0098200  147.4073000   -95.5597300  111.4591000   -94.5201400  -52.6863800   -12.7480000  -12.3956300
    1710000000    -1.0300630  145.1773000   -86.9630600 -119.9418000   -86.7274900   57.3740800   -12.7219100  -12.3252800
    1713000000    -1.0400340  142.9060000   -92.8661000   -6.6260470   -92.9756000   75.3027000   -12.7250000  -12.4973700
    1716000000    -1.0423490  140.7080000   -96.5089300  -68.8334000   -92.4100100  140.7539000   -12.7294900  -12.5536900
    1719000000    -1.0576380  138.4496000   -89.6161000   99.4993400   -97.4800500  155.7512000   -12.7308800  -12.6107600
    1722000000    -1.0668730  136.2303000   -97.8715400   21.0525000   -86.3343400  120.8049000   -12.7288300  -12.6188400
    1725000000    -1.0824420  134.0043000   -94.8646500  -24.6639400   -90.3765800   99.2604400   -12.7177900  -12.6587600
    1728000000    -1.0906400  131.8132000  -114.9954000  -88.1281700   -85.7104000  105.2869000   -12.7113700  -12.7157900
    1731000000    -1.1029810  129.5323000   -83.0296600 -177.2967000   -86.2486600  172.5660000   -12.7142300  -12.7835500
    1734000000    -1.1172720  127.3231000   -84.6862700  100.7755000   -91.6926400 -160.7587000   -12.7019700  -12.7666900
    1737000000    -1.1259340  125.1090000   -87.4735900  -96.6793300   -86.6202500  144.4235000   -12.6951900  -12.8392000
    1740000000    -1.1382950  122.9384000   -96.8615100  122.9859000   -93.3896700 -131.2528000   -12.6877400  -12.9248500
    1743000000    -1.1412190  120.7352000   -87.9416600   60.3119800   -92.4445400 -149.4761000   -12.6801800  -12.9644500
    1746000000    -1.1537910  118.5018000  -101.5772000  123.5983000   -85.2478900 -144.1723000   -12.6818600  -13.0435800
    1749000000    -1.1548420  116.2354000   -94.4983700 -136.3743000   -99.0571000 -172.6777000   -12.6723900  -13.0496400
    1752000000    -1.1613210  114.0280000  -107.3859000   12.6125000   -87.8351100   62.6129600   -12.6621800  -13.1127800
    1755000000    -1.1734540  111.7951000   -93.2907700 -175.9585000   -84.5327400  -19.6614600   -12.6525400  -13.1693000
    1758000000    -1.1770060  109.5563000   -97.2460100 -120.6123000  -103.8555000  -55.6851500   -12.6478500  -13.2352200
    1761000000    -1.1856370  107.2833000   -95.7653000  -92.6380200   -86.9662000 -132.3103000   -12.6307900  -13.3491700
    1764000000    -1.1869640  105.0939000   -92.9173600  -88.6264800   -90.2926900    8.0166780   -12.6172900  -13.4302000
    1767000000    -1.1886310  102.8133000  -102.6383000   71.9092800   -86.4370100 -174.1729000   -12.6047300  -13.5202500
    1770000000    -1.1946280  100.5224000   -88.9951800   44.2508000  -100.5651000 -152.0091000   -12.6151900  -13.5540900
    1773000000    -1.2029380   98.2613700   -89.9172700 -165.0928000   -90.2683900   59.6397600   -12.6011700  -13.6607800
    1776000000    -1.2092400   95.9811700   -89.1394500  -80.6334200   -84.1113700  102.9868000   -12.5829300  -13.7330400
    1779000000    -1.2044710   93.7637200   -99.4732200   49.7609100   -85.7491500 -175.4581000   -12.5618900  -13.8061600
    1782000000    -1.2208090   91.4795200   -85.9355200   49.4298900   -85.3267200   47.6630700   -12.5458600  -13.8713500
    1785000000    -1.2312310   89.1932800   -96.8123000   32.1381900   -89.2130700  139.7658000   -12.5234000  -14.0506600
    1788000000    -1.2448700   86.9203000   -99.3636400  108.1905000   -99.1571700   46.8598700   -12.5050200  -14.0729800
    1791000000    -1.2464150   84.5811500   -82.5247300   -5.5728220   -86.8834800   70.5263700   -12.4808900  -14.2306100
    1794000000    -1.2633210   82.2939800   -90.8226600    5.8428340   -87.2737400 -153.1975000   -12.4540100  -14.3101500
    1797000000    -1.2771180   79.9777400   -89.9660100  155.3099000   -94.4195400  140.2848000   -12.4223000  -14.4308700
    1800000000    -1.2878350   77.6275300   -86.9465300  -91.3929700   -91.4397700   25.2840500   -12.3978100  -14.5598600
    1803000000    -1.2980020   75.3256700  -105.3002000  -71.3158400   -85.0949200  142.0219000   -12.3723800  -14.5711300
    1806000000    -1.3105280   73.0249300   -92.1397100  -25.9026500   -88.3993800  176.6735000   -12.3497700  -14.6947500
    1809000000    -1.3085980   70.7184400   -83.9706000   40.1056400   -92.5927100   48.4238100   -12.3129700  -14.8177600
    1812000000    -1.3318670   68.3219000   -92.1354800 -129.0271000   -85.3097500  -92.9442800   -12.2897700  -15.0064200
    1815000000    -1.3488810   65.9823800   -87.6380800  -16.6086600   -89.7256400   62.2770200   -12.2644500  -15.0747600
    1818000000    -1.3559350   63.6384800   -88.4543000  100.9665000   -80.9703100  125.4232000   -12.2331400  -15.1497200
    1821000000    -1.3632810   61.2223000   -90.6940200   35.4787900   -84.1254900   39.9124200   -12.1935800  -15.2479500
    1824000000    -1.3828450   58.8949500   -86.2085100   10.8954300   -89.6420400   52.4272400   -12.1841100  -15.2606100
    1827000000    -1.3942040   56.5039700  -101.1092000  160.8734000   -90.5616600   31.3634600   -12.1423700  -15.4928600
    1830000000    -1.4011070   54.0943700   -91.2101100 -177.8098000   -96.6811300  147.3150000   -12.1043300  -15.5482900
    1833000000    -1.4163080   51.6515500   -88.7521800  -87.2328200   -88.1391100  -38.9552700   -12.0821400  -15.6301000
    1836000000    -1.4222410   49.2452000   -89.1562300  -32.0334100   -95.0168600  162.4448000   -12.0436100  -15.6034400
    1839000000    -1.4372000   46.8142200   -98.7783100   43.4998400   -77.0975300   70.9006800   -12.0162000  -15.6961000
    1842000000    -1.4465760   44.3436700   -86.0684400  149.1088000   -82.7487500  -32.9417500   -11.9904500  -15.7785100
    1845000000    -1.4488520   41.8586600   -89.6865500 -126.3149000   -82.5622300   77.4876700   -11.9634000  -15.8685000
    1848000000    -1.4600610   39.3771400   -87.1565900  118.4574000   -86.8958900  -10.8703000   -11.9240300  -16.0148900
    1851000000    -1.4716230   36.9810200   -91.4035600   29.3484600   -75.5424900  104.9827000   -11.8973900  -16.1746900
    1854000000    -1.4752480   34.4747000  -101.4741000  179.1995000   -79.6646200  -70.2481600   -11.8770400  -16.2766700
    1857000000    -1.4744730   31.9315900   -84.9152500  178.6809000   -90.9027100   84.8863600   -11.8436800  -16.3681300
    1860000000    -1.4882920   29.4549600   -88.3038200 -153.8630000  -102.8504000    2.6746790   -11.8156000  -16.4894400
    1863000000    -1.4904350   26.9458700   -92.3008900  -24.3085000   -87.3990200 -107.1860000   -11.7932500  -16.6308300
    1866000000    -1.4984230   24.4532400   -91.0344600 -140.8188000   -92.4018700  -14.2033400   -11.7634300  -16.7803400
    1869000000    -1.4975540   21.8471200   -86.8054800    7.9027150   -95.9777800  -61.7206000   -11.7250200  -16.9461500
    1872000000    -1.5047280   19.2426900   -89.1237900  -63.1127400   -88.2926000  139.5033000   -11.6934600  -17.1377600
    1875000000    -1.5120820   16.6698800   -98.5273400 -125.5792000   -86.2935300 -127.3539000   -11.6609200  -17.3077500
    1878000000    -1.5161990   14.1010400   -88.2567900  -85.9980900   -95.2821000   86.9644900   -11.6339000  -17.4404200
    1881000000    -1.5270690   11.4448900   -90.8374100  -95.1073600   -82.1928100 -157.4673000   -11.6017800  -17.6130400
    1884000000    -1.5292530    8.8050710   -82.8694300  -92.0560000   -91.0649100  -98.4068200   -11.5664000  -17.7505400
    1887000000    -1.5276910    6.1388570   -89.9928600  -55.2232000   -88.4050100  -96.0621700   -11.5376800  -17.9602500
    1890000000    -1.5321750    3.4822640   -93.2482300   -4.0769640   -90.5559500   -7.8647360   -11.5001000  -18.1411600
    1893000000    -1.5435190    0.8002810   -93.0698400    8.5356540   -87.1896500  -85.3921700   -11.4985900  -18.2647500
    1896000000    -1.5550360   -1.9162500   -87.8547700   69.4435300   -91.9099000   70.8355600   -11.4777000  -18.5517800
    1899000000    -1.5671830   -4.6343390   -87.8496900   18.9242500   -83.9170200  129.5452000   -11.4315100  -18.6657600
    1902000000    -1.5712250   -7.3917320  -100.3638000  174.6478000   -82.6348300  116.5506000   -11.4017600  -18.9111800
    1905000000    -1.5848350  -10.1835400   -90.9211000 -134.8236000   -87.6902000  122.0614000   -11.3628500  -19.0870200
    1908000000    -1.6033730  -12.9757600   -89.8984400 -162.4428000   -82.3391600  -61.4916400   -11.3317200  -19.2794100
    1911000000    -1.6296580  -15.7514000   -94.0149200 -150.4962000   -88.6624600  -26.8080200   -11.2830300  -19.5031900
    1914000000    -1.6338640  -18.5786400   -93.1395000  104.1834000   -86.2628600  167.2059000   -11.2526000  -19.6455200
    1917000000    -1.6496830  -21.4340200   -94.9835700 -128.2896000   -97.7903100 -100.6542000   -11.2165700  -19.8657200
    1920000000    -1.6689890  -24.2976000   -89.9767600   50.9977300   -96.2477000 -144.0461000   -11.1778400  -20.0640900
    1923000000    -1.6802320  -27.2449000   -93.3301400 -113.6000000   -95.6953400  -60.6181100   -11.1400300  -20.3436600
    1926000000    -1.6974060  -30.1860600   -90.6093800  172.7327000   -96.3905400  -90.3953100   -11.0965600  -20.6126600
    1929000000    -1.7149190  -33.0893400   -95.5155200 -139.8548000   -91.8402800  -46.8307200   -11.0630600  -20.8041600
    1932000000    -1.7287980  -36.0628600   -98.2783100  -71.2105400   -85.5644500   -3.2393550   -11.0251900  -21.0673800
    1935000000    -1.7467320  -39.0741500   -97.6457200  171.7128000   -93.3144500  -85.9924300   -10.9830600  -21.3288900
    1938000000    -1.7583030  -42.0575100   -83.8258400 -100.4579000   -84.6051600  -82.7618900   -10.9446900  -21.5270100
    1941000000    -1.7708110  -45.1121700   -89.3966400   41.2200500   -89.1527500  -70.3986900   -10.9113900  -21.7021300
    1944000000    -1.7880690  -48.0672600   -94.8057700 -169.1686000   -94.9922000 -128.7127000   -10.8683300  -21.9313400
    1947000000    -1.7950580  -51.1550600  -100.4141000  -76.9025200   -85.9496200 -125.9842000   -10.8294300  -22.2130600
    1950000000    -1.8049280  -54.2929200   -88.5825000  166.3857000   -92.5676800  -86.7613900   -10.8006100  -22.4873900
    1953000000    -1.8097680  -57.3966600   -95.2963100  132.3960000   -94.7885400  141.9359000   -10.7710900  -22.6712800
    1956000000    -1.8223240  -60.5749700   -91.6889900 -175.9136000   -86.6801800 -122.1925000   -10.7287800  -22.8664800
    1959000000    -1.8218150  -63.6956100   -88.8696700  160.2888000  -108.9674000   81.3392900   -10.6916600  -23.2087700
    1962000000    -1.8331290  -66.8975900   -97.4555300 -112.6318000   -93.1171700   12.2790700   -10.6643900  -23.4347000
    1965000000    -1.8464750  -70.0152200   -91.6242300 -122.1123000  -105.9300000 -104.9703000   -10.6127400  -23.5384400
    1968000000    -1.8489110  -73.2703500  -106.9511000   45.5601200   -92.8985900  127.2897000   -10.5752000  -23.7717100
    1971000000    -1.8590770  -76.5193100   -92.4756500  166.6601000   -97.8279400  -70.6161800   -10.5459000  -24.0806800
