! 1/1/2000 12:27:00 AM
! C:\DOCUMENTS AND SETTINGS\VECTORSTARUSER\DESKTOP\231101\ANT_2_32_100R.S2P
! CHANNEL.1
! TR.MEASUREMENT
! CORRECTED.DATA
# HZ S DB R 50.0
! FREQ.HZ         S11DB        S11A          S21DB        S21A          S12DB        S12A          S22DB        S22A
    1500000000    -5.3100900  -68.3770400   -94.8422700   84.2415800   -83.3649700  -46.4857900   -12.9671600   -6.9724310
    1503000000    -5.3579970  -69.8075900   -87.6284000  143.4034000   -91.5312500   21.5405900   -12.9849600   -6.9017150
    1506000000    -5.3982200  -71.3279200   -86.5859900  179.5141000   -92.5356400   89.7571000   -13.0340300   -6.7548570
    1509000000    -5.4448150  -72.7217000   -92.7570200  -77.0069700   -87.6328300 -134.1912000   -13.0549900   -6.7048850
    1512000000    -5.4952980  -74.1307100   -84.1031300  -22.3340000   -84.6592600    4.6653520   -13.0710100   -6.6030290
    1515000000    -5.5338100  -75.6511100   -89.6312800   45.2533300   -87.7813400   31.4081500   -13.0789200   -6.4687290
    1518000000    -5.5735090  -77.1704100   -84.2788800   58.4155100  -106.5304000   18.8656400   -13.0820500   -6.4333800
    1521000000    -5.6077390  -78.6840800   -89.9585400  -20.4085800   -88.1851300   30.0214200   -13.0749400   -6.4159680
    1524000000    -5.6328420  -80.0919300   -90.9417400  103.9319000   -80.3590800  -45.8462400   -13.0865000   -6.3013970
    1527000000    -5.6798630  -81.5540700   -86.5433000  113.3827000   -88.3818100  171.9898000   -13.0883400   -6.3709560
    1530000000    -5.7165740  -83.0513200   -86.6268800  176.0244000   -81.8005000  173.6503000   -13.0896300   -6.2783840
    1533000000    -5.7519800  -84.5554700   -90.2755300 -149.0454000   -79.5648900  -93.5281500   -13.0841800   -6.3239180
    1536000000    -5.8048860  -85.9316000   -83.2249600 -104.3617000   -90.2804900   53.4867100   -13.0805000   -6.2867960
    1539000000    -5.8452710  -87.4807100  -103.9273000   -9.3241930   -87.5338700   44.7518400   -13.0881100   -6.3306630
    1542000000    -5.8943560  -88.9748500   -83.5481300 -160.2354000   -80.7778200  161.2969000   -13.0819700   -6.3789010
    1545000000    -5.9427790  -90.4707300   -85.7713800  -56.4471400   -83.2842300   88.9947000   -13.0702500   -6.3730200
    1548000000    -5.9897420  -91.9617800   -85.1468400  -95.3910500   -85.4852400  108.6975000   -13.0562300   -6.3543520
    1551000000    -6.0317070  -93.3988000   -91.9544900  109.4799000   -88.1530900 -154.0318000   -13.0552600   -6.4215150
    1554000000    -6.0735260  -94.9365100   -94.2219500  -31.8709900   -83.8752900  142.4622000   -13.0434400   -6.4018590
    1557000000    -6.1253320  -96.3807100   -85.2224800   27.7880700  -102.2504000  -26.9637400   -13.0158200   -6.5300800
    1560000000    -6.1793190  -97.8873000   -88.5987500    5.3780590   -88.5548500 -179.2216000   -12.9971000   -6.5614090
    1563000000    -6.2174770  -99.3896300   -81.9733800 -107.0245000   -96.2979400  177.5961000   -12.9903600   -6.5079600
    1566000000    -6.2726510 -100.8672000   -89.7901100  -29.4312600   -85.1656500 -129.8591000   -12.9746900   -6.6517340
    1569000000    -6.3275900 -102.3772000   -85.4910000  175.8158000   -92.9375800 -117.2647000   -12.9527200   -6.6102120
    1572000000    -6.3761300 -103.8897000   -94.1080500 -106.4495000   -88.4413500 -133.9688000   -12.9452400   -6.7193540
    1575000000    -6.4385000 -105.4420000  -109.0057000  125.4915000   -91.0178800  -82.6862500   -12.9243100   -6.7948370
    1578000000    -6.4910150 -106.9732000   -86.8940100 -174.1148000   -82.4995300 -133.2906000   -12.9084600   -6.7929460
    1581000000    -6.5440180 -108.5117000   -87.1746900   64.0982600   -81.8910500 -151.0221000   -12.8851600   -7.0125450
    1584000000    -6.6000060 -110.0545000   -89.1822500   86.8878900   -90.9125400 -119.7204000   -12.8645200   -6.8703800
    1587000000    -6.6595150 -111.6002000   -89.0486500   76.2723800   -86.1502200 -118.6651000   -12.8496200   -6.9565420
    1590000000    -6.7085360 -113.1816000   -83.1475100   35.7311800   -96.4043400  -57.6498900   -12.8347900   -7.0704510
    1593000000    -6.7627250 -114.7398000   -87.2369000  -37.0807300   -95.6398400  -61.4610200   -12.8280200   -7.1932280
    1596000000    -6.8205320 -116.4040000   -95.1465100   74.0711100   -83.0935300   50.2212000   -12.8124500   -7.2683090
    1599000000    -6.8737360 -117.9732000   -98.2991900 -108.8019000   -92.2641400  -12.1306900   -12.8050800   -7.4192450
    1602000000    -6.9218700 -119.5395000   -86.9366800    6.9070290   -86.2212100  -92.2398000   -12.7867600   -7.5137550
    1605000000    -6.9817300 -121.1836000   -88.9740900 -142.5573000   -91.7718200  -22.5447100   -12.7811700   -7.6271030
    1608000000    -7.0244150 -122.8615000   -87.5894900  179.6303000   -88.6799000   27.3510200   -12.7640300   -7.7925630
    1611000000    -7.0801170 -124.4599000   -94.6813700  -14.0227100   -96.4002300  -12.6312500   -12.7698800   -7.9403850
    1614000000    -7.1271750 -126.0192000   -84.7506600 -141.2185000   -86.5096300  146.2310000   -12.7684600   -8.1047110
    1617000000    -7.1848230 -127.6279000   -85.1879700  -10.9409300   -86.6664000   25.7557300   -12.7622900   -8.2733910
    1620000000    -7.2257020 -129.2274000  -102.8005000   87.0657700   -83.8591300  -78.9160100   -12.7574100   -8.4221450
    1623000000    -7.2796920 -130.9134000   -87.0240400   85.9197200   -82.0539600  163.0016000   -12.7615900   -8.5882230
    1626000000    -7.3225030 -132.5410000   -94.8733200   34.4739300   -87.4732500   69.9829900   -12.7560400   -8.7762580
    1629000000    -7.3608870 -134.1347000   -98.3174700   43.4617300   -86.2796200  -71.2613700   -12.7542600   -8.9557500
    1632000000    -7.4178270 -135.7677000   -84.9772200 -148.8250000   -88.0019400  -58.0052900   -12.7551500   -9.0910650
    1635000000    -7.4692760 -137.3657000   -87.5641500  -83.4004200   -83.1157600   17.4684700   -12.7577700   -9.2562070
    1638000000    -7.5183290 -139.0069000   -90.1695100   59.4253500  -102.7192000    0.2415714   -12.7909400   -9.4698720
    1641000000    -7.5703660 -140.6067000   -80.1960800   27.9784900   -83.5477100 -162.5185000   -12.7934800   -9.5375820
    1644000000    -7.6226590 -142.2270000   -90.6940500   71.5823900   -85.7247600   89.1266200   -12.7827100   -9.6891240
    1647000000    -7.6595200 -143.8283000   -85.1250800  -72.6158200   -89.2308000  178.4621000   -12.7811400   -9.9932100
    1650000000    -7.7034140 -145.4218000   -92.0648700 -140.8968000   -84.7872600 -156.6875000   -12.7867400  -10.1782200
    1653000000    -7.7500050 -147.0584000   -93.1506700   52.0382500   -83.2905200  136.4431000   -12.7902400  -10.2787100
    1656000000    -7.7986050 -148.6835000   -92.4465900  -89.5746800   -86.7350200 -135.1639000   -12.7929100  -10.3985900
    1659000000    -7.8429930 -150.2599000   -89.3936600  -25.2902200   -87.9825700   40.7107800   -12.7902500  -10.6081600
    1662000000    -7.8937360 -151.8686000   -89.5168400 -108.2914000   -90.3301500  155.2946000   -12.7904700  -10.7278500
    1665000000    -7.9448740 -153.4539000   -99.6470900   58.0465000   -89.2374000  -62.9813900   -12.7894600  -10.9049800
    1668000000    -7.9945970 -155.0260000   -87.8237900  115.7282000   -87.2174200 -104.3399000   -12.7813400  -11.1420400
    1671000000    -8.0588940 -156.6265000   -91.2365300 -151.5548000   -91.8678700  109.8747000   -12.7890800  -11.1760200
    1674000000    -8.1037030 -158.2359000   -94.1470000   26.0214200   -88.0163500 -172.0772000   -12.7915500  -11.3613600
    1677000000    -8.1638740 -159.8215000   -83.6163800   14.4639000   -98.8538700  -21.6541600   -12.7893200  -11.5241200
    1680000000    -8.2047200 -161.4266000   -85.5884200  120.1003000   -90.8461000   36.9587100   -12.7855100  -11.6164300
    1683000000    -8.2608810 -163.1003000  -105.3145000   40.8240600   -91.9429900  174.8185000   -12.7803100  -11.8634100
    1686000000    -8.3208730 -164.6392000   -88.2103800   86.9171100   -90.0493000    8.4594390   -12.7768000  -11.8721400
    1689000000    -8.3727480 -166.3737000   -81.7244000  104.7708000   -92.5998200 -147.9608000   -12.7728600  -12.1054200
    1692000000    -8.4307870 -167.9644000   -85.9440900   52.3641400   -88.3734500    5.3129430   -12.7682000  -12.1797900
    1695000000    -8.4862600 -169.5836000   -95.1238900  174.5830000   -86.0838500  -34.4584200   -12.7660900  -12.2617800
    1698000000    -8.5333290 -171.2801000   -91.6239000  -99.4827800   -87.4573700  139.5206000   -12.7635900  -12.2695400
    1701000000    -8.5982330 -172.8846000   -89.5582500  -19.4058700   -89.9466200  -16.6212700   -12.7597200  -12.3764400
    1704000000    -8.6527000 -174.5254000   -91.6369800  177.9010000   -90.9501000  -73.4967000   -12.7551900  -12.3267900
    1707000000    -8.7033410 -176.1479000   -88.0057600 -152.0490000   -89.9710400   57.3979500   -12.7414100  -12.3548800
    1710000000    -8.7647750 -177.8881000   -91.8432900   84.1603500   -89.3811100  -66.3864700   -12.7258500  -12.3693600
    1713000000    -8.8234850 -179.5464000   -89.3385700 -179.7775000   -91.7875200 -147.4517000   -12.7257900  -12.4856700
    1716000000    -8.8685140  178.8280000   -97.6641100   73.6822000   -97.5529300   56.6332600   -12.7276500  -12.5460200
    1719000000    -8.9230020  177.1690000   -92.2156100  162.4293000   -84.3578600  150.9385000   -12.7319200  -12.6093200
    1722000000    -8.9765830  175.5094000   -98.3983200 -115.7815000   -88.6694300 -179.2159000   -12.7278100  -12.6210300
    1725000000    -9.0255280  173.9062000   -99.4463700    3.1326280   -92.3239600  166.1435000   -12.7177000  -12.6431100
    1728000000    -9.0751400  172.2829000   -92.2657400 -146.2948000   -88.0507000  -47.7418500   -12.7120400  -12.7080000
    1731000000    -9.1341530  170.5461000   -92.7296000  148.5954000   -99.0576800   75.7098900   -12.7134300  -12.8006200
    1734000000    -9.1891270  168.9555000  -100.4151000  -51.7790500   -84.9531900  143.2674000   -12.7046500  -12.7755500
    1737000000    -9.2384290  167.3469000   -85.1900100 -144.7166000   -95.6618400 -161.4260000   -12.6938800  -12.8510200
    1740000000    -9.2931900  165.6861000   -89.0241600  -51.6064600   -86.3233800  159.8486000   -12.6870400  -12.9174900
    1743000000    -9.3390960  164.1077000   -87.8602100 -153.2917000   -93.3521000 -129.5190000   -12.6807300  -12.9438600
    1746000000    -9.3910830  162.4496000   -98.0830800 -127.8464000   -92.9276900 -166.8930000   -12.6807900  -13.0152100
    1749000000    -9.4324970  160.8101000  -105.9730000   -6.6974110   -94.0300900 -154.3148000   -12.6714900  -13.0670000
    1752000000    -9.4825520  159.2044000   -93.4168900  177.3691000   -84.4995500  -91.8897400   -12.6616300  -13.1461100
    1755000000    -9.5381780  157.5761000   -94.0799000  172.3216000   -87.0500300 -175.1892000   -12.6569000  -13.1527300
    1758000000    -9.5796720  156.0093000   -82.4756700  128.3459000   -90.5775800   52.6964900   -12.6499400  -13.2171200
    1761000000    -9.6259330  154.3817000   -88.2404700  115.9125000   -87.4617800  -16.6247200   -12.6338500  -13.3161500
    1764000000    -9.6728860  152.7646000   -91.3301700 -147.3460000   -85.3935400  141.8693000   -12.6179000  -13.4282100
    1767000000    -9.7119940  151.1657000   -88.5253600   29.5501500   -82.6150500 -136.8366000   -12.6050400  -13.5088000
    1770000000    -9.7618400  149.5797000   -93.4144700   50.1617900   -91.4386000  141.2243000   -12.6083500  -13.5128900
    1773000000    -9.8013380  147.9855000   -88.5027600 -110.2498000   -88.1340100   36.0558400   -12.5960000  -13.5689100
    1776000000    -9.8513570  146.3743000   -98.4155600  -77.4342700   -89.2494800  -14.5350200   -12.5740500  -13.6798500
    1779000000    -9.8933520  144.8864000   -88.3252100 -111.6224000   -90.7562300  -86.9145700   -12.5608600  -13.8199700
    1782000000    -9.9474220  143.2803000   -88.8536100 -174.9822000  -100.9018000  164.4424000   -12.5458600  -13.8987500
    1785000000    -9.9913000  141.7345000   -85.9828900 -105.4965000   -91.1972500    6.6354440   -12.5251700  -13.9819400
    1788000000   -10.0335200  140.1395000   -83.6688100 -102.8660000   -93.9688900  -41.9812800   -12.5010300  -14.1274600
    1791000000   -10.0897600  138.5848000   -85.1740700 -152.7733000   -91.0488100   49.3830700   -12.4844500  -14.2272600
    1794000000   -10.1360800  137.0568000   -86.9500300 -124.7507000   -93.5025200  -39.5188800   -12.4525800  -14.3355100
    1797000000   -10.1787500  135.4593000   -84.6000700    7.8472700   -88.8019500   23.8255300   -12.4223300  -14.3957400
    1800000000   -10.2361500  133.9901000   -92.0802900   46.1552400   -89.3279900   44.3363000   -12.3961000  -14.5285900
    1803000000   -10.2875700  132.4776000   -88.9617000  -31.3961200   -83.8741400   56.0847500   -12.3716300  -14.6383500
    1806000000   -10.3388800  130.9513000   -89.9756700  120.3383000   -88.2389800 -167.8783000   -12.3430000  -14.7827200
    1809000000   -10.3866300  129.4088000   -88.3854200  137.0072000   -90.5538500  126.4663000   -12.3148300  -14.7968900
    1812000000   -10.4368500  127.9175000   -95.1888300   67.3194600   -81.6986900   25.4065900   -12.2862400  -14.9517800
    1815000000   -10.5009900  126.4459000  -100.5055000 -171.7265000   -84.0417200  145.9677000   -12.2580000  -15.0850600
    1818000000   -10.5532700  124.9320000   -82.1026300 -165.9249000   -84.3096300  164.5133000   -12.2263500  -15.1977900
    1821000000   -10.5933300  123.3913000   -92.8983800   90.1576600   -84.8974000   42.3505600   -12.1988800  -15.1514100
    1824000000   -10.6692400  121.9293000   -99.0707800  -11.5295200   -78.4098800 -103.8982000   -12.1766400  -15.3782600
    1827000000   -10.7290500  120.4296000   -94.7702600   51.8679500   -88.1742500  158.6094000   -12.1473500  -15.4142900
    1830000000   -10.7817200  118.9370000   -97.1851000   83.5692300   -91.9950500  147.8446000   -12.1061000  -15.5576200
    1833000000   -10.8418300  117.3666000   -84.2252300   78.6990100   -86.4431000   53.5864900   -12.0884500  -15.6107100
    1836000000   -10.9037100  115.9095000   -96.3627500  167.0966000   -91.5196600  173.0951000   -12.0437300  -15.6050400
    1839000000   -10.9616500  114.4481000   -87.0847800   94.9950200   -79.1151100   85.7613200   -12.0145300  -15.7067300
    1842000000   -11.0248600  112.9069000  -104.8553000   -4.3259230   -84.1962900 -116.6412000   -11.9953000  -15.7737600
    1845000000   -11.0857000  111.3744000   -89.1271100  -31.2996800   -85.9377400  -56.9047400   -11.9636700  -15.8900200
    1848000000   -11.1425300  109.8520000   -98.8084500  -30.0056700   -85.3619300  134.4341000   -11.9268200  -16.0086000
    1851000000   -11.1968000  108.4256000   -94.3616400 -104.0133000   -80.1578500  -83.5185800   -11.9021000  -16.1737800
    1854000000   -11.2599000  106.8781000   -86.1304800  -75.2590900   -87.4205600  -29.0133600   -11.8786900  -16.2712000
    1857000000   -11.3183400  105.3754000   -84.5966700  -22.4008800   -92.3953300  -65.2873600   -11.8450900  -16.3804300
    1860000000   -11.3717100  103.8907000   -88.8692000  146.4020000   -90.6449100   66.1815200   -11.8141800  -16.4920900
    1863000000   -11.4296800  102.4017000   -88.6259500 -123.5435000   -87.2512200 -176.0762000   -11.7919800  -16.6072300
    1866000000   -11.4813300  100.8805000   -90.2484500   20.5169800   -90.8046600 -131.0523000   -11.7657300  -16.7901200
    1869000000   -11.5299700   99.3503000   -88.6956300  -33.0471500  -111.9531000  -92.2003600   -11.7258500  -16.9489800
    1872000000   -11.5863300   97.8913800   -91.3710600  -21.0329700   -85.2698100  -72.1218000   -11.6939500  -17.1513700
    1875000000   -11.6414900   96.4174000   -92.7964000  -25.2704700   -92.9928700  -44.7756500   -11.6635900  -17.2908100
    1878000000   -11.7048700   94.9652800   -95.3751200 -114.6121000   -97.0034100   85.1968900   -11.6327600  -17.4412100
    1881000000   -11.7621200   93.4649400   -85.0288300   11.2632700   -97.3852500 -143.3742000   -11.6021400  -17.5836200
    1884000000   -11.8301800   92.0361300   -89.9918000 -162.5155000   -89.8882400  -11.1936600   -11.5667400  -17.7435800
    1887000000   -11.8775000   90.5508600   -96.2337200  -35.1147600   -89.8412900   44.8807900   -11.5360600  -17.9563400
    1890000000   -11.9306100   89.1105200   -92.1294000  -78.8426700   -94.0383000 -105.7397000   -11.5005200  -18.1441200
    1893000000   -11.9832500   87.7653400   -89.3896200  127.6672000   -92.0007200 -136.7229000   -11.5032900  -18.2582400
    1896000000   -12.0469200   86.3654800   -85.0379300 -107.0669000   -98.7187500  -98.6874300   -11.4787600  -18.5579800
    1899000000   -12.0926200   85.0129900   -96.9287100   35.7070900   -89.9961900 -116.3104000   -11.4325500  -18.7255400
    1902000000   -12.1445100   83.6629300   -89.3786200  -64.9123100   -88.6341200  -70.9269000   -11.4026600  -18.8523800
    1905000000   -12.2010800   82.2579100  -102.2931000   16.1730400   -87.9182100  162.5026000   -11.3631800  -19.0333900
    1908000000   -12.2560700   80.9605900   -96.3835100   53.2026400   -98.8587600   -8.2412320   -11.3258700  -19.2683800
    1911000000   -12.3292100   79.7524900   -95.8297000 -159.1072000   -99.8647600  -26.6037300   -11.2850400  -19.5238300
    1914000000   -12.3787200   78.3712400   -85.2583800  -54.9342200   -86.6041900  -61.2645600   -11.2496100  -19.6685200
    1917000000   -12.4532400   77.1431000   -89.3843100   26.8702200   -86.7694700   84.9816500   -11.2131000  -19.8347800
    1920000000   -12.5267900   75.8137500   -91.0176100  -95.6669100   -85.6350300  -72.6229600   -11.1810000  -20.0674300
    1923000000   -12.5865600   74.5826900   -84.4427900  -16.2240700  -107.0545000  -69.0221200   -11.1401500  -20.3545800
    1926000000   -12.6473100   73.3262500   -89.3928600  108.6095000   -93.6058400  -15.8929700   -11.0997200  -20.5691500
    1929000000   -12.7290600   72.1321400   -90.9682600  170.5094000   -85.2491100 -107.3152000   -11.0664200  -20.8139500
    1932000000   -12.8033700   70.9009600   -89.5621400 -109.2277000   -87.1440600   75.1586000   -11.0256300  -21.0535600
    1935000000   -12.8807800   69.6363100   -91.3323600  -94.2366600   -89.7798600  -42.8335500   -10.9880400  -21.2585600
    1938000000   -12.9594900   68.3803700   -89.9223700  -39.4592200   -87.8401200  -99.7383300   -10.9513800  -21.5035300
    1941000000   -13.0525800   67.1241600   -99.2792100  -23.2396800   -89.8000000  -44.8655200   -10.9119100  -21.6603200
    1944000000   -13.1370300   65.9692400   -89.8057600   -0.4353906  -102.9303000 -172.7244000   -10.8739600  -21.8546000
    1947000000   -13.2237400   64.7631500   -90.9227800  -13.8589700  -102.6789000 -178.3926000   -10.8350400  -22.1987300
    1950000000   -13.3167800   63.4619600   -90.1430200 -115.3593000   -92.0191900    0.4619104   -10.8014000  -22.4763900
    1953000000   -13.4071300   62.2294500  -102.3261000  -53.3708000   -94.9084500  101.4904000   -10.7634200  -22.7212300
    1956000000   -13.4998200   60.9779300  -100.8872000  -57.7581000   -93.5236800  -93.3685500   -10.7277300  -22.9371900
    1959000000   -13.5914300   59.6760600   -90.0678300  -48.8844300   -88.9063900 -157.5061000   -10.6943400  -23.2467400
    1962000000   -13.6778200   58.4256100   -91.6465100   23.5402900   -94.2958700   23.8597800   -10.6613500  -23.4501100
    1965000000   -13.7729600   57.1568500   -86.8997300  -54.2902100   -84.6885800   64.0135300   -10.6111200  -23.5514900
    1968000000   -13.8714500   55.8650200   -92.9922200 -162.2218000  -107.0134000   41.4922100   -10.5746100  -23.7794200
    1971000000   -13.9717900   54.5566000   -98.4156000 -137.5751000   -87.5941800  -80.7505000   -10.5451900  -24.0812800
